!Keysight Technologies N9917A: A.12.46
!Date: Friday, 22 December 2023 20:32:25
!TimeZone: (UTC-03:00) Buenos Aires!Model: N9917A
!Serial: MY56072049
!GPS Latitude: 
!GPS Longitude: 
!GPS TimeStamp: 0001-01-01 00:00:00Z
!GPS Seconds Since Last Read: 0
!CHECKSUM:1073216493
!Correction: S11(Rdy)
!S1P File: Measurement: S11:
# Hz S RI R 50
30000	0.99815422782891	-0.00147078612797254
18029970	0.47462593161818	-0.666748544556375
36029940	-0.135421109752464	-0.709371138741639
54029910	-0.68975362828936	-0.243356797806883
72029880	-0.378173004313139	0.644545774031559
90029850	0.630823629176994	0.686592884993432
108029820	0.921424798153743	-0.320668596067974
126029790	0.223164144840806	-0.924887278036673
144029760	-0.628186893827659	-0.665272794444235
162029730	-0.856613714861852	0.253534675867732
180029700	-0.0681364788161115	0.913505522974057
198029670	0.859592089009315	0.420546831998453
216029640	0.773249585413373	-0.580235007658694
234029610	-0.109803794775407	-0.936898556273643
252029580	-0.843319682223916	-0.346644669007972
270029550	-0.669870507419009	0.610300646010514
288029520	0.299968549240382	0.883570886687105
306029490	0.951328602681275	0.111946183268551
324029460	0.535148153246913	-0.781932514231605
342029430	-0.42582543212923	-0.813579484893479
360029400	-0.900047530361722	0.0186544947360795
378029370	-0.374521414299596	0.831580007450634
396029340	0.59906751899013	0.719671964292005
414029310	0.918942799724071	-0.208071053427765
432029280	0.228910204923326	-0.89279398578597
450029250	-0.68453306079209	-0.584918898530278
468029220	-0.823117924204516	0.364979938478814
486029190	-0.0390970919256716	0.91686297223474
504029160	0.80777856763008	0.45873101384868
522029130	0.770537938211116	-0.503298162750068
540029100	-0.107758258643337	-0.897891728294465
558029070	-0.849140383960511	-0.285671301203198
576029040	-0.629542640035622	0.642482019322039
594029010	0.288618311148721	0.861930099225158
612028980	0.899417071370162	0.147371305018624
630028950	0.539657772120441	-0.728116841431635
648028920	-0.413005647187827	-0.798354664572651
666028890	-0.890246520284898	0.0267357736613245
684028860	-0.363703318064753	0.809641476065105
702028830	0.557244696433727	0.698125216116981
720028800	0.887817100537971	-0.168733014056899
738028770	0.260446452218737	-0.864770327225445
756028740	-0.65014628810075	-0.608936842371257
774028710	-0.814757641405427	0.318790728845694
792028680	-0.0697846306518093	0.868444305477202
810028650	0.753401228313563	0.473652075175274
828028620	0.791073462420294	-0.442405428758085
846028590	-0.0202562969056725	-0.899267133272508
864028560	-0.793324558207151	-0.367731677228667
882028530	-0.652871249145797	0.552204328537407
900028500	0.209452204435463	0.842482811170816
918028470	0.867001009900668	0.226968705136348
936028440	0.631313282141644	-0.651890363330355
954028410	-0.276837047416297	-0.840354252566011
972028380	-0.844376928223682	-0.101450688173236
990028350	-0.443370988164311	0.722757758319707
1008028320	0.451902226311871	0.749888833896611
1026028290	0.902832424185497	-0.018757309045632
1044028260	0.422863462134156	-0.786985665261231
1062028230	-0.496097996528106	-0.699286662522461
1080028200	-0.818453563504372	0.163507817040398
1098028170	-0.208483225641773	0.826317914136427
1116028140	0.647197541570918	0.604146283755465
1134028110	0.857781732994372	-0.256947556740036
1152028080	0.172611228526451	-0.852045696916466
1170028050	-0.671982907469668	-0.494318867316052
1188028020	-0.723943990258514	0.406571177126952
1206027990	0.0279534967532707	0.855141618577394
1224027960	0.778416714603406	0.415529491976031
1242027930	0.73580538548283	-0.472249859460577
1260027900	-0.0978925502997909	-0.834998610719594
1278027870	-0.775689440323171	-0.236283919463572
1296027840	-0.554970513471746	0.601993600592092
1314027810	0.26421338407937	0.80837241798169
1332027780	0.849491575665749	0.17967649809113
1350027750	0.54070654675174	-0.657501332984684
1368027720	-0.358833786526182	-0.717365526704213
1386027690	-0.770509484077491	0.0381161527303463
1404027660	-0.325743339196727	0.717706192494842
1422027630	0.480948915449992	0.678523063250466
1440027600	0.85352727474846	-0.0915270138086036
1458027570	0.270572273166123	-0.764323095656578
1476027540	-0.52919865468074	-0.494876410858919
1494027510	-0.634860016575007	0.260389639437431
1512027480	-0.0743531809451444	0.732105446087136
1530027450	0.668260127091343	0.481339037706125
1548027420	0.755587970457738	-0.374033477929066
1566027390	0.00583456815713673	-0.727983863028662
1584027360	-0.532700375109296	-0.269027295706295
1602027330	-0.453152934855917	0.361210741413557
1620027300	0.144606873889101	0.680328266059497
1638027270	0.803022317063769	0.225554053352419
1656027240	0.571968031318904	-0.575899470340794
1674027210	-0.136101588762178	-0.645773403447136
1692027180	-0.51708094952428	-0.173806132851844
1710027150	-0.362943175925075	0.431084420537668
1728027120	0.365256964174734	0.632236338791695
1746027090	0.841047440392784	-0.0847072283308862
1764027060	0.358029353095369	-0.703697636496151
1782027030	-0.300013592277921	-0.606208474967548
1800027000	-0.605125674403602	-0.0389293170338857
1818026970	-0.246297229766449	0.608734915587444
1836026940	0.616783062172868	0.493920169735012
1854026910	0.751345941426973	-0.365250350815759
1872026880	0.114921085254642	-0.771180481111378
1890026850	-0.511236788159241	-0.490477177232196
1908026820	-0.643975177567365	0.219865631388076
1926026790	0.0144936788667989	0.733916517670428
1944026760	0.774399667013745	0.23915879030965
1962026730	0.576558452566165	-0.577608232260573
1980026700	-0.141862102953475	-0.763070851043844
1998026670	-0.679423372339033	-0.286107944300011
2016026640	-0.547979042084081	0.484343541589283
2034026610	0.302224037013378	0.709488943723377
2052026580	0.807700832467422	-0.0315488983448696
2070026550	0.366852634876075	-0.718105738248056
2088026520	-0.376043398557183	-0.685656149934195
2106026490	-0.758630151115773	-0.043464713110095
2124026460	-0.355541593111386	0.669533346502456
2142026430	0.529966303051986	0.572625404760318
2160026400	0.756114423863322	-0.275185567739059
2178026370	0.146510598300109	-0.794159741268458
2196026340	-0.566114642872244	-0.552240123944074
2214026310	-0.746670799074598	0.197577071857232
2232026280	-0.119602388332148	0.757760878249784
2250026250	0.687241277924821	0.384286879708108
2268026220	0.657469431333533	-0.476798657969773
2286026190	-0.0624174164139888	-0.81046689516067
2304026160	-0.696189119049212	-0.384583255568959
2322026130	-0.660758071688748	0.406148777598212
2340026100	0.114570171032658	0.766674107812255
2358026070	0.7783462712376	0.17763737224554
2376026040	0.518960942793872	-0.630503782186998
2394026010	-0.259801421095324	-0.768648930548643
2412025980	-0.769246825343147	-0.186991286744082
2430025950	-0.516998020932754	0.581343782353582
2448025920	0.338058325046998	0.712277794905488
2466025890	0.806883127265089	-0.0367569329431033
2484025860	0.34587323113981	-0.736102014001699
2502025830	-0.440922781648721	-0.669448363125435
2520025800	-0.789198258637414	0.0327568115792407
2538025770	-0.330296715863568	0.71594510288999
2556025740	0.532165569707415	0.597425822775942
2574025710	0.772750135476512	-0.240305575038979
2592025680	0.147518693343218	-0.787219259609592
2610025650	-0.5990224798202	-0.52229603203114
2628025620	-0.751055043933268	0.259878611718102
2646025590	-0.10767039329043	0.792635102063301
2664025560	0.679900541125227	0.424048153154752
2682025530	0.664654021634521	-0.437556391369042
2700025500	-0.0781306131362839	-0.788913229945529
2718025470	-0.726083970796996	-0.327158077324125
2736025440	-0.646330224279704	0.474351008308966
2754025410	0.133901638832695	0.789652996740039
2772025380	0.765860253270952	0.201041360192609
2790025350	0.504321126157769	-0.605962109712175
2808025320	-0.305701373344361	-0.730623001578796
2826025290	-0.794568440460094	-0.0905722215591624
2844025260	-0.458814066067492	0.655313254927268
2862025230	0.382298231150085	0.691434378650159
2880025200	0.777997538871323	-0.0653846459172004
2898025170	0.274108222576994	-0.737287171301424
2916025140	-0.531444458934625	-0.587701991508514
2934025110	-0.771832891303093	0.187282553854112
2952025080	-0.186152734200639	0.764976808439818
2970025050	0.60585585663886	0.489387571683671
2988025020	0.69848894364618	-0.346298342808246
3006024990	-0.00328244414581584	-0.786345303865814
3024024960	-0.697889580484772	-0.361121033318809
3042024930	-0.634907340274239	0.449071503177736
3060024900	0.124989465812683	0.76338768290722
3078024870	0.74847135314311	0.20963848226799
3096024840	0.511927306536995	-0.588721354359403
3114024810	-0.292810460830915	-0.719804327305214
3132024780	-0.766532944621471	-0.0643078287834397
3150024750	-0.397147082433821	0.656032475172924
3168024720	0.423867071453442	0.647095230980737
3186024690	0.772857587578748	-0.101363612612641
3204024660	0.252309566271296	-0.732719676875151
3222024630	-0.533972028218447	-0.54239001836614
3240024600	-0.720000960254418	0.240419095264739
3258024570	-0.0956222948356938	0.76136630581365
3276024540	0.649789585516738	0.430048324431035
3294024510	0.674322671501718	-0.380734258196348
3312024480	-0.0312134121574874	-0.759297089167763
3330024450	-0.687181183434257	-0.30029960798479
3348024420	-0.57127403034866	0.497146085293905
3366024390	0.201996668692994	0.74654422391552
3384024360	0.759275965378609	0.163711288627032
3402024330	0.491200441144352	-0.585188234635027
3420024300	-0.291699759277976	-0.692392569323346
3438024270	-0.749654955744771	-0.0399490939363891
3456024240	-0.363594342002956	0.672126272350215
3474024210	0.443056526729493	0.635804039186015
3492024180	0.761827737107971	-0.0909859027410408
3510024150	0.276017305148908	-0.70277270556003
3528024120	-0.499193034713302	-0.560642272557821
3546024090	-0.726374164417629	0.210653531847978
3564024060	-0.127048777271206	0.757221328964577
3582024030	0.613228778791038	0.463889163845923
3600024000	0.700141400447815	-0.30981499469787
3618023970	0.0663737397684675	-0.754071953030148
3636023940	-0.641079549815757	-0.398625028668617
3654023910	-0.636876051194837	0.408039255462797
3672023880	0.0873380149627842	0.756816330290015
3690023850	0.713558797938867	0.281285392850726
3708023820	0.597187770807732	-0.484034133061416
3726023790	-0.131502564149988	-0.751198858471379
3744023760	-0.721128549174407	-0.22217642892158
3762023730	-0.510034099338135	0.55068418292222
3780023700	0.271034055795782	0.708238113117681
3798023670	0.761510144916318	0.100596205247064
3816023640	0.465986666420428	-0.614051142854026
3834023610	-0.308550091233065	-0.696593015761305
3852023580	-0.74543642315309	-0.0420100939281983
3870023550	-0.362106652575428	0.654551330981136
3888023520	0.428397837491188	0.6290954262832
3906023490	0.769070240731542	-0.0712943810201354
3924023460	0.321976564872241	-0.699084211930693
3942023430	-0.444656921292243	-0.607899727202827
3960023400	-0.72983761686819	0.121043977105917
3978023370	-0.206660120337068	0.716233767757817
3996023340	0.561292726306472	0.516944931020519
4014023310	0.728106901225762	-0.24699937537619
4032023280	0.148257016778253	-0.744966518562754
4050023250	-0.568557797269176	-0.481469998860546
4068023220	-0.676906791404162	0.289516326035378
4086023190	-0.024628774207255	0.745418409581546
4104023160	0.669244865929674	0.355911435042048
4122023130	0.636662369354373	-0.413763571428494
4140023100	-0.0313555438280419	-0.751014554507156
4158023070	-0.659881869408895	-0.332837056795992
4176023040	-0.581528711159405	0.445919475458699
4194023010	0.174169969795687	0.715504233197619
4212022980	0.72877452285012	0.158035067521275
4230022950	0.500109938061957	-0.557688255098318
4248022920	-0.223923457810487	-0.710354701628212
4266022890	-0.71655741483595	-0.135626261935303
4284022860	-0.411237856287168	0.590391448865757
4302022830	0.383360878579312	0.610333427293547
4320022800	0.728881579087132	-0.0721380121192397
4338022770	0.306000470357684	-0.673521698417131
4356022740	-0.425493387676381	-0.595246669568762
4374022710	-0.702215749253024	0.117121747470805
4392022680	-0.15320033520444	0.682744365490041
4410022650	0.574539810249328	0.419045576890536
4428022620	0.654529556613538	-0.321442726696109
4446022590	0.052232071244749	-0.730160574480234
4464022560	-0.603448560829574	-0.380548562108568
4482022530	-0.570758812762948	0.383824436504613
4500022500	0.14491896359575	0.672212973261937
4518022470	0.6906022434642	0.153654305300686
4536022440	0.473806723540021	-0.547096433605281
4554022410	-0.249507927927012	-0.668400558402696
4572022380	-0.684406452940741	-0.0651092117405407
4590022350	-0.319465434082895	0.597742502557094
4608022320	0.433528077423294	0.538634246599693
4626022290	0.691865987880957	-0.157955577163015
4644022260	0.184321475159461	-0.687130389858244
4662022230	-0.513237162193332	-0.469791716443742
4680022200	-0.63049007558291	0.257908091536367
4698022170	-0.0148930770335099	0.681578191473548
4716022140	0.631647140696989	0.294385176697047
4734022110	0.545256811325943	-0.446013430185952
4752022080	-0.140810494278339	-0.690005300198859
4770022050	-0.66573980465588	-0.19906590364349
4788022020	-0.46929955106673	0.505886699677663
4806021990	0.269667748579398	0.636655172200675
4824021960	0.69857642730576	0.00924607659216518
4842021930	0.31887023129192	-0.628179067818336
4860021900	-0.394379902598767	-0.5861674065746
4878021870	-0.705321146242577	0.0563614561274397
4896021840	-0.262330827240288	0.646548897110475
4914021810	0.486037635892787	0.493071705622145
4932021780	0.655106792209363	-0.246423319931268
4950021750	0.08982234758391	-0.709802565825804
4968021720	-0.569503337306905	-0.445992287252458
4986021690	-0.661273407907514	0.271476411679957
5004021660	-0.0380129513413857	0.69723125602202
5022021630	0.621914631775922	0.305924526684804
5040021600	0.561063248821625	-0.437805473927528
5058021570	-0.0924184719223247	-0.723882677157034
5076021540	-0.666612804172194	-0.302214534815406
5094021510	-0.566824013641227	0.429534580856544
5112021480	0.15659225781204	0.677097914534137
5130021450	0.688927186434477	0.13807233268252
5148021420	0.464273218685056	-0.557962283353485
5166021390	-0.235720240685739	-0.700475068906724
5184021360	-0.708756381737509	-0.157204324914981
5202021330	-0.446273423475041	0.54364743968699
5220021300	0.305416228431439	0.62829218350921
5238021270	0.719819495645844	0.00453539151941468
5256021240	0.368304460818628	-0.635453285514836
5274021210	-0.353422534604266	-0.641385008981751
5292021180	-0.714271135416461	-0.00449117274036376
5310021150	-0.318931322913453	0.625368873636988
5328021120	0.423522636240933	0.567974249931946
5346021090	0.715654496556414	-0.112277546168984
5364021060	0.256292815458576	-0.683655542160271
5382021030	-0.458451169958536	-0.551754220807139
5400021000	-0.692382471057301	0.138636405228376
5418020970	-0.194654534323691	0.677806329856299
5436020940	0.521109493561727	0.489410916994729
5454020910	0.678079027196089	-0.236584297530813
5472020880	0.109491710103371	-0.703659380943267
5490020850	-0.5568531097998	-0.434172092724109
5508020820	-0.649522541807903	0.26981476337851
5526020790	-0.0702100397829933	0.703367819322527
5544020760	0.595687795251502	0.37488566671318
5562020730	0.590876838363475	-0.371008224169355
5580020700	-0.0627602970760787	-0.694106251460383
5598020670	-0.634175042768638	-0.291207633577586
5616020640	-0.57676962582302	0.401777557251682
5634020610	0.0795595034580231	0.690509681127814
5652020580	0.645068787813906	0.212410256873245
5670020550	0.456084519178376	-0.4965405381401
5688020520	-0.227933818402568	-0.647041028956322
5706020490	-0.680109828355051	-0.13323415612426
5724020460	-0.445221486858851	0.518104894634441
5742020430	0.269962705071599	0.602013142517427
5760020400	0.651661432933597	-0.0195529523697718
5778020370	0.266240250757767	-0.609494199912921
5796020340	-0.408061439981712	-0.542025050744763
5814020310	-0.664051666919321	0.0832430245636868
5832020280	-0.208959974383352	0.608994104951217
5850020250	0.476090859353575	0.412159724160501
5868020220	0.580782197654687	-0.276277433663138
5886020190	0.0226063026637903	-0.658377657249349
5904020160	-0.560451527926962	-0.342304036027633
5922020130	-0.537367181807712	0.332085369593412
5940020100	0.0953821786368545	0.60576810145157
5958020070	0.602415175184186	0.142434442692518
5976020040	0.400121582573574	-0.496366145042896
5994020010	-0.252161831129517	-0.587908957882655
6012019980	-0.619448277937116	-0.034228760129764
6030019950	-0.269854993973827	0.542416914263893
6048019920	0.397752846983774	0.469661354325017
6066019890	0.607414802589249	-0.162236132391337
6084019860	0.126910364057469	-0.616222522476476
6102019830	-0.490641144026194	-0.369682159620541
6120019800	-0.532371648538104	0.292637967610808
6138019770	0.0481576169532856	0.615410005347945
6156019740	0.586735048013416	0.229959779642722
6174019710	0.462684256168404	-0.427252087956308
6192019680	-0.188649545013338	-0.591024180586672
6210019650	-0.616452401600762	-0.0765698550156866
6228019620	-0.353069797624298	0.528016432823751
6246019590	0.3087985348869	0.565438286078413
6264019560	0.638757103030117	-0.0258562975091596
6282019530	0.236135653387976	-0.582023538976002
6300019500	-0.432387347687052	-0.459178431127929
6318019470	-0.624479019920924	0.177913793217148
6336019440	-0.149983265514528	0.643129779510717
6354019410	0.494686218289436	0.428668725015804
6372019380	0.583522125445627	-0.264657048687439
6390019350	0.000293972604748951	-0.64473949698645
6408019320	-0.586887205589597	-0.312261092416061
6426019290	-0.577897518419955	0.35320095974078
6444019260	0.0223097389447638	0.668919873587973
6462019230	0.595080488146517	0.262063327815263
6480019200	0.480721059587706	-0.43786266979629
6498019170	-0.178874555576238	-0.6438281170429
6516019140	-0.662001229388148	-0.181561307343241
6534019110	-0.496836730303724	0.470523849843591
6552019080	0.174069960181436	0.643220385355147
6570019050	0.64779462900338	0.110310953415614
6588019020	0.381528448165635	-0.547013034783329
6606018990	-0.305187754067812	-0.614347648513642
6624018960	-0.688373870640036	-0.0577789418978484
6642018930	-0.385518820114949	0.555790946294354
6660018900	0.315478992873659	0.581657836002746
6678018870	0.667607248106958	-0.0328649107052896
6696018840	0.289652268377757	-0.61994280944532
6714018810	-0.393004223570788	-0.565135604463928
6732018780	-0.675437508020716	0.0579771565220388
6750018750	-0.263234908979663	0.613038999084759
6768018720	0.428173551795857	0.512844171463392
6786018690	0.667145166858388	-0.141649636026777
6804018660	0.201684984582155	-0.654625225324623
6822018630	-0.466825779298513	-0.485752928760658
6840018600	-0.640418898318296	0.181142399189908
6858018570	-0.13928205222625	0.653784101267229
6876018540	0.514874993808582	0.442018360233572
6894018510	0.635640244891821	-0.237049040020901
6912018480	0.089590436738287	-0.660347061698044
6930018450	-0.540152790718162	-0.372514486604094
6948018420	-0.585560998628645	0.306261437711443
6966018390	-0.0212859484312289	0.674253939061149
6984018360	0.571729258207869	0.357245796855557
7002018330	0.573057703990412	-0.323617535708493
7020018300	-0.0373950864488471	-0.639515414031691
7038018270	-0.593323409366243	-0.245053427402848
7056018240	-0.510679064399273	0.41677831220211
7074018210	0.101819610507101	0.656633106465905
7092018180	0.60638592143166	0.224362271980348
7110018150	0.450232954580032	-0.431286849552102
7128018120	-0.208746946303277	-0.584505760520526
7146018090	-0.632247621504539	-0.0779798361043336
7164018060	-0.38704770784871	0.517600417631165
7182018030	0.249680842605211	0.580994430380422
7200018000	0.608593055479729	0.0341878781011395
7218017970	0.269059736339436	-0.532797352502084
