!Keysight Technologies N9917A: A.12.46
!Date: Friday, 22 December 2023 20:19:52
!TimeZone: (UTC-03:00) Buenos Aires!Model: N9917A
!Serial: MY56072049
!GPS Latitude: 
!GPS Longitude: 
!GPS TimeStamp: 0001-01-01 00:00:00Z
!GPS Seconds Since Last Read: 0
!CHECKSUM:1915109879
!Correction: S11(Rdy)
!S1P File: Measurement: S11:
# Hz S RI R 50
30000	0.995936121542254	-0.00155144750357216
18029970	0.742447940439524	-0.658282192124334
36029940	0.0149791528673709	-0.984899391133625
54029910	-0.86359517961756	-0.418434771404395
72029880	-0.610484662229892	0.643484375698696
90029850	0.670610771241723	0.673830003042497
108029820	0.903006727204762	-0.371748151454249
126029790	0.183901017916041	-0.963484698807956
144029760	-0.691265179270642	-0.663264096276174
162029730	-0.863983178687243	0.318632093809002
180029700	0.0150825630035154	0.913357399837504
198029670	0.884199927809015	0.321398423916509
216029640	0.700358847927638	-0.648712559666459
234029610	-0.202288066197832	-0.912852078533768
252029580	-0.861228570900169	-0.245208431745115
270029550	-0.566776804532995	0.672970354390086
288029520	0.409199174129613	0.801660466913451
306029490	0.921437732215161	-0.0261281481555465
324029460	0.399338635858408	-0.813106056290692
342029430	-0.513308905281634	-0.702170360828424
360029400	-0.831709792113016	0.156198654051307
378029370	-0.209004022118491	0.831638741215819
396029340	0.675504958373834	0.567379845886248
414029310	0.809488868350861	-0.340646876336907
432029280	0.0592485155677207	-0.84297732980048
450029250	-0.713153170772983	-0.403575622910985
468029220	-0.669754738656839	0.476726582291787
486029190	0.13356693048661	0.831169581249262
504029160	0.799736835403014	0.26429121202273
522029130	0.584554801967176	-0.576757171727805
540029100	-0.26007787894888	-0.755633833160425
558029070	-0.791262095643086	-0.0822010644757185
576029040	-0.426641715136649	0.684163910528032
594029010	0.412897699335909	0.695618073733658
612028980	0.796756908016587	-0.0400960596307343
630028950	0.317381509889161	-0.718219593467375
648028920	-0.505973802390191	-0.590454293901953
666028890	-0.749756384973529	0.19945578545292
684028860	-0.151675936773665	0.756913563127168
702028830	0.602032319676068	0.481006220005286
720028800	0.707325743892864	-0.311739529257669
738028770	0.0468392234414685	-0.771471538060734
756028740	-0.65888407415222	-0.377504925797774
774028710	-0.61092184908629	0.421077405278944
792028680	0.110211327310385	0.73028745279385
810028650	0.711689327082464	0.244497195995365
828028620	0.565908773094278	-0.517828370961856
846028590	-0.188309504317876	-0.733080052072579
864028560	-0.710869921937121	-0.146081375661468
882028530	-0.417773461970321	0.571065319655767
900028500	0.334285730908718	0.640794215793379
918028470	0.752753691949792	0.0183462349693813
936028440	0.392989291360635	-0.647592355471948
954028410	-0.374819152183997	-0.617911716782796
972028380	-0.68160831457042	0.0813766846467822
990028350	-0.206899766927275	0.658728328241016
1008028320	0.51108496675767	0.516023315272304
1026028290	0.725082309347	-0.182495580622191
1044028260	0.194316318862697	-0.699071320790337
1062028230	-0.509525600317268	-0.446649691606085
1080028200	-0.59425140554851	0.288508284703392
1098028170	0.0034329217402469	0.692320143634345
1116028140	0.62893490767431	0.359308160713167
1134028110	0.627249528481265	-0.352502192603116
1152028080	-0.0199771232667264	-0.676107188433514
1170028050	-0.597073470934202	-0.238318556539068
1188028020	-0.466880921279418	0.459370462791083
1206027990	0.190526179689229	0.662391819064129
1224027960	0.675036916420104	0.181725734992461
1242027930	0.466804234832701	-0.479818495305273
1260027900	-0.228983675053375	-0.584694137253022
1278027870	-0.618224223219659	-0.012563160834658
1296027840	-0.29508757606818	0.571111220007221
1314027810	0.353075151349552	0.563974120027117
1332027780	0.656338314373828	-0.0186479558868032
1350027750	0.259403411025698	-0.561241703358629
1368027720	-0.398600358974085	-0.427693003057577
1386027690	-0.54955860276658	0.196569028400788
1404027660	-0.0917070126520376	0.604167576573616
1422027630	0.481415495194171	0.404499619578631
1440027600	0.574738915603839	-0.217096244352458
1458027570	0.0344269508782205	-0.557958269856684
1476027540	-0.463906457042867	-0.210207628623604
1494027510	-0.382255191711539	0.34526416104256
1512027480	0.122350281116135	0.54790806851786
1530027450	0.56937055803759	0.201479396924287
1548027420	0.431780801732225	-0.373238317553301
1566027390	-0.120015214311562	-0.442078947857357
1584027360	-0.371918671519002	-0.0262591406445074
1602027330	-0.165740054932734	0.368666459252292
1620027300	0.300902759599777	0.424105074488319
1638027270	0.600541836542481	-0.0106434851979614
1656027240	0.305250191882095	-0.439438842616049
1674027210	-0.123271832625461	-0.361204579366567
1692027180	-0.2681476389385	-0.0131894823586001
1710027150	-0.0598026631283236	0.3255874233373
1728027120	0.420388447201537	0.295002066642522
1746027090	0.566198722000209	-0.215538339423891
1764027060	0.188395460979474	-0.517263693670796
1782027030	-0.214458988806521	-0.375197621705882
1800027000	-0.33506131761261	0.040389217167847
1818026970	0.0126069056520028	0.393441886669956
1836026940	0.519187420870212	0.162308918281106
1854026910	0.464377791863336	-0.379091574438136
1872026880	0.00820506678624418	-0.553316874883691
1890026850	-0.377767257952468	-0.281518030056405
1908026820	-0.352455142456308	0.22623446130379
1926026790	0.175281509616674	0.437094286271255
1944026760	0.560128234010021	-0.00296796843339052
1962026730	0.316807083177559	-0.490787549207632
1980026700	-0.188188668528533	-0.520245221331826
1998026670	-0.490581769814125	-0.110719291237803
2016026640	-0.264633572046163	0.393787469139342
2034026610	0.331278628294255	0.385707511595689
2052026580	0.534005649751388	-0.169385045590499
2070026550	0.150973894670038	-0.559762400650904
2088026520	-0.354651119074131	-0.438710335530886
2106026490	-0.523739383242439	0.0690263554115034
2124026460	-0.122426520168895	0.485180087515347
2142026430	0.443857453582169	0.270391410699495
2160026400	0.465250297439795	-0.319802764251601
2178026370	-0.0129717802662841	-0.589125330024215
2196026340	-0.476877687344903	-0.325854676833588
2214026310	-0.486772882507289	0.22984979781289
2232026280	0.0381755354430641	0.508017590265826
2250026250	0.516226899523462	0.128695475941851
2268026220	0.377577195010767	-0.438951810787828
2286026190	-0.157185789184414	-0.579031976723174
2304026160	-0.543629231997732	-0.19509767226972
2322026130	-0.395706896662317	0.355062818812458
2340026100	0.192427377471169	0.473310336615259
2358026070	0.545811548365339	-0.0156994348331499
2376026040	0.268618334306939	-0.521398328273394
2394026010	-0.281810517186413	-0.520764510426706
2412025980	-0.557712562251448	-0.0444282013072327
2430025950	-0.264671974398055	0.450524054738103
2448025920	0.330709810608158	0.404357940166189
2466025890	0.533567840064119	-0.153250199375422
2484025860	0.139815515875031	-0.560809939443397
2502025830	-0.387730272031083	-0.415702519724684
2520025800	-0.528721432551305	0.115319701721574
2538025770	-0.114300118439252	0.510595618101582
2556025740	0.432824519711511	0.302955332335375
2574025710	0.474827401757299	-0.270539211546429
2592025680	-0.00158184219668063	-0.550310607069544
2610025650	-0.466529808736071	-0.27766549529541
2628025620	-0.458921425510101	0.266214921105261
2646025590	0.0406846215994707	0.518646081386362
2664025560	0.488259021922485	0.170809245687284
2682025530	0.363836438435558	-0.370235890308115
2700025500	-0.155388441235025	-0.497896852284204
2718025470	-0.513587460391869	-0.115658278311958
2736025440	-0.349576166613596	0.388102267609383
2754025410	0.185783220460913	0.468543189779931
2772025380	0.489347950832009	0.0172597820676927
2790025350	0.220524723622333	-0.438864659628301
2808025320	-0.293835308513865	-0.410459245954922
2826025290	-0.508955590699877	0.0498973249165908
2844025260	-0.19551022832691	0.458461086887912
2862025230	0.313149576794377	0.351652891686311
2880025200	0.435863219119642	-0.147504213241209
2898025170	0.0501007428014819	-0.472700902879525
2916025140	-0.405431672708799	-0.278193297902973
2934025110	-0.437224692726256	0.21487377529759
2952025080	-0.00938993640113548	0.463368745278878
2970025050	0.406143491538402	0.186511518035592
2988025020	0.339220685696694	-0.302197982842796
3006024990	-0.119971757844978	-0.453870696672107
3024024960	-0.457932570608805	-0.115123780098926
3042024930	-0.301640508724725	0.340420950735775
3060024900	0.17935018058541	0.401458705036565
3078024870	0.445429725342527	-0.00135450543687719
3096024840	0.20066202410698	-0.413976510210681
3114024810	-0.273313776288464	-0.370714456886586
3132024780	-0.444427932490781	0.0690363122055846
3150024750	-0.12518849027519	0.424106401560432
3168024720	0.338419906211629	0.294397647381325
3186024690	0.424299370472113	-0.17708001720423
3204024660	0.0389479039185409	-0.456515659963065
3222024630	-0.380661887899901	-0.234446404134117
3240024600	-0.369666735757551	0.245086999823096
3258024570	0.0669094032291748	0.451524247415558
3276024540	0.446547176562864	0.150571268657154
3294024510	0.345323978531955	-0.320801837968181
3312024480	-0.122581668618022	-0.439015257653067
3330024450	-0.442995634944739	-0.0729960458544951
3348024420	-0.257149015949127	0.382918406446208
3366024390	0.235238635254783	0.420376533972934
3384024360	0.487833035714073	-0.00585838940949638
3402024330	0.221149856181572	-0.419856849423937
3420024300	-0.269657267636912	-0.375808531896748
3438024270	-0.458817532557196	0.0893449611431997
3456024240	-0.126536043330064	0.469578080129351
3474024210	0.365431066413751	0.338733199753758
3492024180	0.470404888158562	-0.153918327613507
3510024150	0.0814140671957839	-0.47520492354383
3528024120	-0.38730962932431	-0.282482527770525
3546024090	-0.431268330152705	0.234264921803069
3564024060	0.0174518420954766	0.504564120746268
3582024030	0.455364679132157	0.227000775996953
3600024000	0.418574644929888	-0.284812387135246
3618023970	-0.0500891105765155	-0.497133389170685
3636023940	-0.464576398050733	-0.179112552945625
3654023910	-0.365913180084591	0.342847251142293
3672023880	0.14611314304917	0.487508248961135
3690023850	0.50669190913001	0.10326359614713
3708023820	0.344805980995962	-0.392396698220332
3726023790	-0.17049538356877	-0.488285086089833
3744023760	-0.502106873083984	-0.0699424579401635
3762023730	-0.275546533693319	0.418692611689531
3780023700	0.259009359108908	0.437987767931403
3798023670	0.525299681956669	-0.0185725245698757
3816023640	0.253305168473446	-0.466661486761871
3834023610	-0.274090519862669	-0.439649574107146
3852023580	-0.499932384326104	0.0433100644569757
3870023550	-0.167390454369965	0.465963648199091
3888023520	0.353339976180192	0.372806942301576
3906023490	0.516739345339724	-0.12719801390958
3924023460	0.158451983359623	-0.503823099106904
3942023430	-0.344170377215265	-0.367982285548551
3960023400	-0.460250920603048	0.143339895050754
3978023370	-0.0582225407587875	0.482973939459678
3996023340	0.422398908870513	0.281763487045469
4014023310	0.464498117011315	-0.230848401372545
4032023280	0.0397763823379542	-0.505207459438247
4050023250	-0.40016398597274	-0.26213369512998
4068023220	-0.396028073878013	0.243566823112841
4086023190	0.0594430370407512	0.471131439818362
4104023160	0.462377576956877	0.16606903653102
4122023130	0.37998332918514	-0.317970355182073
4140023100	-0.0766505982842215	-0.474300795998945
4158023070	-0.428856697382545	-0.151647043078979
4176023040	-0.306542218710995	0.316371362410549
4194023010	0.169905971377177	0.412364469474726
4212022980	0.457454253392401	0.0325187995149144
4230022950	0.262089150942229	-0.380083539521245
4248022920	-0.186729287088313	-0.40752024746997
4266022890	-0.421975273325808	-0.0236093104999857
4284022860	-0.177750476977188	0.361922191421693
4302022830	0.270804309182936	0.304969758976583
4320022800	0.410890297565317	-0.108310970410156
4338022770	0.119297505571912	-0.412875511159607
4356022740	-0.280991510155366	-0.29946681896449
4374022710	-0.358730548278589	0.112602771585389
4392022680	-0.0175429179406656	0.359977431750073
4410022650	0.343047786446241	0.155850911197546
4428022620	0.320960534749746	-0.240851475883789
4446022590	-0.0344577585498799	-0.39977574182091
4464022560	-0.336545851373641	-0.150886439275315
4482022530	-0.239392352026851	0.233164338132155
4500022500	0.144744727885058	0.302186669984953
4518022470	0.366308921680872	-0.0100627507078477
4536022440	0.184877480317098	-0.337160826275366
4554022410	-0.187653708749146	-0.317273611934323
4572022380	-0.333984000098931	0.032243593803757
4590022350	-0.0766994579177215	0.313149849805781
4608022320	0.285797783087984	0.198667835877694
4626022290	0.332621809074494	-0.175224137890657
4644022260	0.0159911689186612	-0.378385228762888
4662022230	-0.30895963833762	-0.182970041545953
4680022200	-0.274542909558791	0.201773528228689
4698022170	0.0918597197018577	0.336697582644496
4716022140	0.368972519088526	0.0569066427521246
4734022110	0.236157558298954	-0.316400439756439
4752022080	-0.161010452442911	-0.36129467054287
4770022050	-0.384016678614955	-0.0270033996885975
4788022020	-0.184103789973831	0.33223022939917
4806021990	0.23611558124003	0.305321500367128
4824021960	0.393001851128418	-0.0926247069096562
4842021930	0.105059816521918	-0.409359208419719
4860021900	-0.307503947772756	-0.301427969115962
4878021870	-0.409117136849249	0.117813630106436
4896021840	-0.0719981285599056	0.407952240845396
4914021810	0.348012929075011	0.226276949807742
4932021780	0.366818756257718	-0.23426793800941
4950021750	-0.0296938872181722	-0.459039346384486
4968021720	-0.41415040614914	-0.222374154880346
4986021690	-0.388863975584534	0.240275765680794
5004021660	0.0499226416212407	0.433852587747591
5022021630	0.426795462079476	0.119087382543419
5040021600	0.315163489524694	-0.351087548165592
5058021570	-0.139631793854558	-0.478465724482827
5076021540	-0.47733282522996	-0.143073801857118
5094021510	-0.335588440944425	0.329608962515903
5112021480	0.163209329439212	0.422950194802749
5130021450	0.472854666905559	0.0189445346578769
5148021420	0.263998675943114	-0.430291053592313
5166021390	-0.221564790571752	-0.469758133533526
5184021360	-0.499942677529399	-0.0568403854212793
5202021330	-0.2606997990992	0.396044347269383
5220021300	0.256955649512193	0.392199076372297
5238021270	0.491778378252185	-0.0613794949527683
5256021240	0.207252618807754	-0.473842148620219
5274021210	-0.28953153089149	-0.425562852809068
5292021180	-0.490212395863761	0.038287885903932
5310021150	-0.172278961653177	0.444703673978445
5328021120	0.331610211901663	0.351716284166477
5346021090	0.48510036761311	-0.131934285077839
5364021060	0.136076803513822	-0.490411666893703
5382021030	-0.345440903216802	-0.35615940615771
5400021000	-0.458358824107421	0.130355641822084
5418020970	-0.0860465071857462	0.465306910636525
5436020940	0.379676324524624	0.293095542021537
5454020910	0.442407181333477	-0.200279623696789
5472020880	0.0387936844215274	-0.47992801888193
5490020850	-0.393298746821479	-0.262869674579853
5508020820	-0.413482311891011	0.212765232942152
5526020790	-0.00979590289058055	0.460025663235851
5544020760	0.397828068221169	0.211606251015673
5562020730	0.356852098525588	-0.262958494855406
5580020700	-0.0747954949509025	-0.440422504525825
5598020670	-0.424177260319508	-0.159498331691123
5616020640	-0.349650438503385	0.278423292667391
5634020610	0.0720295106547451	0.418961537906746
5652020580	0.387455262524222	0.101866704885882
5670020550	0.246832345016897	-0.314373989997499
5688020520	-0.166719647058809	-0.377325374227878
5706020490	-0.414684009977447	-0.0545419625750656
5724020460	-0.243482607345213	0.308282495194441
5742020430	0.159767616738743	0.319377031422592
5760020400	0.345678495292287	-0.0386039428097309
5778020370	0.111335267658615	-0.347990890734805
5796020340	-0.251106148198885	-0.283741746986789
5814020310	-0.35505269933748	0.0610679662423076
5832020280	-0.0910201679614477	0.30646339033239
5850020250	0.241210417269453	0.173407589069194
5868020220	0.263675618090063	-0.175406971665821
5886020190	-0.0282952892500175	-0.337316886592464
5904020160	-0.294946586218334	-0.150243749408191
5922020130	-0.241663863688363	0.170871889345145
5940020100	0.0734377825765336	0.257614943366415
5958020070	0.281185972201051	0.0117724694414404
5976020040	0.14645975497632	-0.267140256436636
5994020010	-0.157354049269696	-0.260538547715302
6012019980	-0.278527413302874	0.0222209958929179
6030019950	-0.0708466729466123	0.253499122798207
6048019920	0.224995352134669	0.163976132442576
6066019890	0.26290459268878	-0.140957913940702
6084019860	-0.00103246269507142	-0.299993157922704
6102019830	-0.260473062789105	-0.123550973252175
6120019800	-0.209872365502381	0.195254995448473
6138019770	0.101959649945315	0.285794985519057
6156019740	0.318046876863053	0.0385936305996384
6174019710	0.180577677344671	-0.268240368069322
6192019680	-0.165433731346492	-0.275009679334468
6210019650	-0.328477258476879	0.0385058487695668
6228019620	-0.120507885362011	0.329393262524126
6246019590	0.238171026924935	0.270649410568514
6264019560	0.345589753202614	-0.0866114687052853
6282019530	0.0606289537819629	-0.347251127166984
6300019500	-0.304470525941513	-0.206622955548619
6318019470	-0.350804388089441	0.183282747615273
6336019440	-0.0201207057894934	0.406449437343859
6354019410	0.338537973510129	0.206327249582949
6372019380	0.318194364363547	-0.217581118671769
6390019350	-0.0729752846791165	-0.396709243473554
6408019320	-0.411198969571831	-0.136305147053619
6426019290	-0.344725364470536	0.286045339125439
6444019260	0.0696001953153473	0.428403973478949
6462019230	0.398560013260574	0.113221217707219
6480019200	0.265634371611341	-0.330303089445432
6498019170	-0.184166477229661	-0.417564552681139
6516019140	-0.47278020977972	-0.0699612496769027
6534019110	-0.309460061486589	0.355521142450081
6552019080	0.15881869075539	0.418386515795717
6570019050	0.437128936322444	0.02325695095777
6588019020	0.214252282589159	-0.406273118525455
6606018990	-0.259739118040724	-0.411023461966149
6624018960	-0.49099196582645	-0.00046097105420361
6642018930	-0.238489981724525	0.406534584305996
6660018900	0.251033937200785	0.378529052397413
6678018870	0.459072726053018	-0.0685639976902404
6696018840	0.165638697585866	-0.456846401682176
6714018810	-0.307734282749777	-0.38241229971056
6732018780	-0.472055010206007	0.0713667985568898
6750018750	-0.152679673497548	0.440061833181473
6768018720	0.328817047546796	0.33514854929964
6786018690	0.461939407254582	-0.13452285908332
6804018660	0.115360268657891	-0.470055430424663
6822018630	-0.342856699974056	-0.322856742691072
6840018600	-0.43619221897689	0.151341907430807
6858018570	-0.0661878985309668	0.458499776189519
6876018540	0.378508003377742	0.286389711265111
6894018510	0.433013929161728	-0.18493587688311
6912018480	0.0434903487796623	-0.453477120486856
6930018450	-0.377820806331103	-0.236513819413585
6948018420	-0.385269537083036	0.230854132211898
6966018390	0.00743634661354372	0.464376841778394
6984018360	0.396315524667648	0.232760033079587
7002018330	0.373373539168517	-0.219579589439711
7020018300	-0.0376733182484449	-0.411248276546276
7038018270	-0.392593015748371	-0.140612061371251
7056018240	-0.323796810896386	0.286966495022594
7074018210	0.0731946856292427	0.426163030145856
7092018180	0.380365746840262	0.14117694216075
7110018150	0.269004527135928	-0.262499874684244
7128018120	-0.137244695781131	-0.344983537760003
7146018090	-0.390425341932049	-0.0337995173550187
7164018060	-0.23432179032501	0.322100859731333
7182018030	0.141837395488641	0.348346736523065
7200018000	0.338215763479583	0.0242520431275171
