!Keysight Technologies N9917A: A.12.46
!Date: Friday, 22 December 2023 20:24:18
!TimeZone: (UTC-03:00) Buenos Aires!Model: N9917A
!Serial: MY56072049
!GPS Latitude: 
!GPS Longitude: 
!GPS TimeStamp: 0001-01-01 00:00:00Z
!GPS Seconds Since Last Read: 0
!CHECKSUM:0373900875
!Correction: S11(Rdy)
!S1P File: Measurement: S11:
# Hz S RI R 50
30000	0.997165185843518	-0.00185502588681
18029970	0.667141731908091	-0.615718266980493
36029940	0.0120261694851375	-0.901377311513993
54029910	-0.789097879384002	-0.421190597765064
72029880	-0.49784091406921	0.624278186707785
90029850	0.625593499819636	0.708314613034613
108029820	0.92488846776945	-0.318944332133029
126029790	0.241735465466596	-0.947648837484242
144029760	-0.637463095502969	-0.708409814959392
162029730	-0.891448368904831	0.239583337286503
180029700	-0.0858055525959707	0.921965460038905
198029670	0.85376885862034	0.429221208780059
216029640	0.784144383855601	-0.574611914239971
234029610	-0.0945615761873514	-0.948930028488191
252029580	-0.844262214875813	-0.367969476266782
270029550	-0.685751421373845	0.598153359567157
288029520	0.282173865118824	0.888733000933338
306029490	0.948881770920963	0.130180344935293
324029460	0.555362525962866	-0.772731023002105
342029430	-0.405173605239626	-0.825496642119244
360029400	-0.899776242349422	-0.00528607834775114
378029370	-0.394129835383679	0.821387634421126
396029340	0.583075014747863	0.735873355660423
414029310	0.925758709196542	-0.1804044570533
432029280	0.257740154663136	-0.884231776347873
450029250	-0.661488495635199	-0.605792071261971
468029220	-0.831928155741056	0.335882454562859
486029190	-0.0696273339465182	0.91493378879497
504029160	0.789768082895525	0.490181777498532
522029130	0.788289279918197	-0.470668946648945
540029100	-0.0721150140455496	-0.896128263563701
558029070	-0.834427270269318	-0.318059258515926
576029040	-0.656523527768429	0.615190022362166
594029010	0.249874504179567	0.875146817185205
612028980	0.887780728046304	0.187485946888193
630028950	0.568199481943774	-0.699194962994268
648028920	-0.375349781931854	-0.813045951004543
666028890	-0.891081390603506	-0.013817161349864
684028860	-0.404374518698696	0.79036769971764
702028830	0.518831112288377	0.72198415235493
720028800	0.88760136334692	-0.124139243493291
738028770	0.302619328291135	-0.848348248619456
756028740	-0.619688637761141	-0.644051546138079
774028710	-0.832417926772387	0.273634368529638
792028680	-0.119934378044583	0.859487894933813
810028650	0.721279995639267	0.509503907042424
828028620	0.809902265798774	-0.398450071961058
846028590	0.0300383931446038	-0.902401556738413
864028560	-0.771863130078205	-0.415314212325304
882028530	-0.684214073277024	0.508850753877075
900028500	0.157686198201717	0.846387281358542
918028470	0.848980680743671	0.274713729018052
936028440	0.670254508784892	-0.614782389230272
954028410	-0.224303394927786	-0.859998508817383
972028380	-0.834713128346604	-0.156529041533866
990028350	-0.486115257323998	0.688660830977458
1008028320	0.402132723071905	0.773685820193269
1026028290	0.903646959126152	0.0391180588425713
1044028260	0.476793337773198	-0.760966153059142
1062028230	-0.445818835595432	-0.734207732736438
1080028200	-0.825726306516526	0.106868245200579
1098028170	-0.262930677703881	0.808472409175999
1116028140	0.605666769270932	0.64734218936865
1134028110	0.876616731910965	-0.19445921342016
1152028080	0.237084692825298	-0.837914843532152
1170028050	-0.633433675282517	-0.542971244196355
1188028020	-0.752098193070055	0.354336778473436
1206027990	-0.0341163893351392	0.859073085016228
1224027960	0.744300209652381	0.476798694585023
1242027930	0.774009668023345	-0.408797727278944
1260027900	-0.0307473612620662	-0.840644138967041
1278027870	-0.761274880394966	-0.297240420290685
1296027840	-0.60408919641126	0.56571979752328
1314027810	0.200203692770118	0.832098645600588
1332027780	0.830310332807901	0.256446184021311
1350027750	0.597990096186228	-0.604920982668068
1368027720	-0.303346496609703	-0.752500461609138
1386027690	-0.785733003644539	-0.0187643584470364
1404027660	-0.388128223539673	0.700237107181903
1422027630	0.418941786147185	0.722553669775136
1440027600	0.855254773304341	-0.00387370389949053
1458027570	0.343403485545231	-0.74239296009362
1476027540	-0.509076096804557	-0.5384006967127
1494027510	-0.663529412039383	0.234078643933227
1512027480	-0.123819167979197	0.730865217129904
1530027450	0.614697358298788	0.541424297259389
1548027420	0.793979982333764	-0.287674833027883
1566027390	0.0579804132432382	-0.724965509776551
1584027360	-0.510748278894515	-0.266401133091481
1602027330	-0.427170313230331	0.345413204743755
1620027300	0.105626072002529	0.655921264346243
1638027270	0.762270055370589	0.313233343402875
1656027240	0.637653463213395	-0.502299951766971
1674027210	-0.0497578117518035	-0.613813317530855
1692027180	-0.404493542262699	-0.209058598189731
1710027150	-0.336971635216654	0.311189750045555
1728027120	0.254725445178641	0.615120070351916
1746027090	0.846977123123521	0.0295374590400306
1764027060	0.462838856995733	-0.645567459264644
1782027030	-0.161747278210818	-0.640250038121975
1800027000	-0.530281279783922	-0.181375651311615
1818026970	-0.344738392389701	0.480662586888607
1836026940	0.507083124837793	0.574444482977352
1854026910	0.806165775345122	-0.256588524871613
1872026880	0.245216226998447	-0.754466654063069
1890026850	-0.39983380388638	-0.588156147972798
1908026820	-0.663584430186816	0.0594734989754148
1926026790	-0.139141056513136	0.70067986459765
1944026760	0.721599675430308	0.363881973666234
1962026730	0.666845091679044	-0.492533140516436
1980026700	-0.0173936124926358	-0.788352566940137
1998026670	-0.61856917744322	-0.4164416978775
2016026640	-0.639284542673514	0.357462123361708
2034026610	0.156042286951251	0.753036155088713
2052026580	0.80328743675752	0.0979503176649688
2070026550	0.472754137208629	-0.663550423715408
2088026520	-0.26765376787096	-0.7491535207783
2106026490	-0.750939232888606	-0.185513593117895
2124026460	-0.487066662813842	0.591457582515312
2142026430	0.416571654517746	0.661097482199345
2160026400	0.791658968116454	-0.156294410432924
2178026370	0.262022945013484	-0.773348545427793
2196026340	-0.482477107293166	-0.648694300375653
2214026310	-0.786544002971683	0.0615353532435881
2232026280	-0.264268109747051	0.726042382108386
2250026250	0.612819035050376	0.49480578288739
2268026220	0.722539211443337	-0.376236788012347
2286026190	0.0559790025228658	-0.825352604026223
2304026160	-0.638534405663435	-0.505809593461059
2322026130	-0.737548377073793	0.28290841596533
2340026100	-0.0275102404896298	0.776810798568204
2358026070	0.740623231545835	0.302195848129814
2376026040	0.612679464320208	-0.552456963879567
2394026010	-0.143552502189864	-0.815072266675734
2412025980	-0.743017432767077	-0.320757988779967
2430025950	-0.623575901109493	0.48421621170121
2448025920	0.208605972245993	0.763589122180076
2466025890	0.809831085466757	0.0960528635977032
2484025860	0.463723499050599	-0.685496760181771
2502025830	-0.335287065457763	-0.74653694632281
2520025800	-0.796081612095931	-0.106939171694488
2538025770	-0.460117054365913	0.652093329999911
2556025740	0.420541014114769	0.690246783824185
2574025710	0.811879801101443	-0.108016333875328
2592025680	0.281909334028894	-0.765148713601817
2610025650	-0.508824880548293	-0.628519073040402
2628025620	-0.7969084045597	0.11864510753502
2646025590	-0.258606689857788	0.7685264221142
2664025560	0.598967540559072	0.553975159034283
2682025530	0.744389014884275	-0.312210751214435
2700025500	0.0663956440819915	-0.800598592427314
2718025470	-0.664653584439752	-0.461279400051075
2736025440	-0.737269362862004	0.349975446605739
2754025410	-0.0265922016734927	0.817760438335213
2772025380	0.723207574357336	0.359114845255881
2790025350	0.622563450339862	-0.50006528023961
2808025320	-0.158683376939752	-0.788721310669559
2826025290	-0.776906328253928	-0.252903772927084
2844025260	-0.60123848769122	0.557675563632806
2862025230	0.225194238927044	0.776026997351147
2880025200	0.786988836977103	0.110001394311353
2898025170	0.432586565151659	-0.669340945027301
2916025140	-0.399660525066079	-0.705632298584165
2934025110	-0.817746569793518	0.00701868604354912
2952025080	-0.371335252219757	0.718604391594573
2970025050	0.479536095391889	0.632792766233936
2988025020	0.77358034191723	-0.173421383533662
3006024990	0.186026894625825	-0.781939348635745
3024024960	-0.608190265581921	-0.535640786213918
3042024930	-0.751103472476032	0.284551987624928
3060024900	-0.0763687636539915	0.786970872618284
3078024870	0.683249064751624	0.399550381996651
3096024840	0.66009268842487	-0.452226161561463
3114024810	-0.102703410164579	-0.796899053490816
3132024780	-0.748768975976076	-0.273612047887756
3150024750	-0.572086318232217	0.539785592134957
3168024720	0.244186480566953	0.751373202172597
3186024690	0.791345665111201	0.107566947404697
3204024660	0.450652679551316	-0.660881902749733
3222024630	-0.378997522821393	-0.691004103634706
3240024600	-0.777551359207478	0.0356760052895475
3258024570	-0.304376324633119	0.723949141519691
3276024540	0.526189229762167	0.600131259305816
3294024510	0.775597530319965	-0.197502668275994
3312024480	0.176737030725606	-0.766307228137461
3330024450	-0.596441328594582	-0.490244644322595
3348024420	-0.702776826385459	0.33281746409449
3366024390	-0.00324979983238929	0.792473037411829
3384024360	0.711813905337249	0.364208672398167
3402024330	0.644679896213586	-0.451785581763457
3420024300	-0.104594526700087	-0.764260087117224
3438024270	-0.731674242985094	-0.240432663924101
3456024240	-0.540226048528186	0.568756630734101
3474024210	0.274328305925687	0.747142561862261
3492024180	0.784306354158536	0.102256664692711
3510024150	0.453867322963655	-0.6320723397355
3528024120	-0.352372091693308	-0.684197523478555
3546024090	-0.777776899397047	0.0203350446222311
3564024060	-0.320569877277189	0.721041505181979
3582024030	0.497373672393086	0.612133795255459
3600024000	0.769460630381373	-0.144083331900499
3618023970	0.242660518455954	-0.736587845459057
3636023940	-0.543201349205962	-0.556216530408861
3654023910	-0.741181515113841	0.248627904167139
3672023880	-0.0961226835466888	0.775609284149292
3690023850	0.645431401658193	0.441584459060323
3708023820	0.700853129467007	-0.351142066221047
3726023790	0.0384172356441967	-0.784127519076919
3744023760	-0.671861940974036	-0.396458906054806
3762023730	-0.643404576765833	0.428778397635189
3780023700	0.106535213648418	0.766016670338441
3798023670	0.738086811635378	0.26571935321243
3816023640	0.602156984624316	-0.516861370325649
3834023610	-0.152881670567146	-0.773489181760534
3852023580	-0.74160434101032	-0.217966255029178
3870023550	-0.514595054259791	0.566955495582452
3888023520	0.286555446130552	0.721351256080284
3906023490	0.787080511637955	0.0943788976922398
3924023460	0.47763960097899	-0.636304569806555
3942023430	-0.309570204522108	-0.716820854076048
3960023400	-0.762768398218226	-0.0539568001685318
3978023370	-0.376448406152961	0.665195560576799
3996023340	0.442719725923146	0.644294240772132
4014023310	0.790087949309369	-0.0854301212497091
4032023280	0.321218146803716	-0.719387337370787
4050023250	-0.456459178472077	-0.621541812967306
4068023220	-0.750358798904252	0.12100078800337
4086023190	-0.212456613732293	0.739472158512166
4104023160	0.582369290441808	0.524388063547726
4122023130	0.741752160811121	-0.263557627198325
4140023100	0.151453208396137	-0.762338023115683
4158023070	-0.577542975202779	-0.504511093096901
4176023040	-0.705305121561485	0.286080283341766
4194023010	-0.0295506728621276	0.766476809243622
4212022980	0.686640755872412	0.357060118596987
4230022950	0.64846976481021	-0.42966958866288
4248022920	-0.0331733658241454	-0.772919010753631
4266022890	-0.683173091563429	-0.346667132303604
4284022860	-0.601315704078022	0.460963902761376
4302022830	0.185997755518655	0.732258076796766
4320022800	0.749527784887571	0.151636397884468
4338022770	0.506651730372247	-0.582413615087255
4356022740	-0.241060101446808	-0.73453522220592
4374022710	-0.747881838451299	-0.130534019230772
4392022680	-0.41023345564917	0.62067393737417
4410022650	0.41298650508407	0.618873647037744
4428022620	0.753680384465362	-0.0943555152137308
4446022590	0.30369083846128	-0.710096098530909
4464022560	-0.460925411424365	-0.611062091571644
4482022530	-0.727652960925723	0.142571721450206
4500022500	-0.142535282952664	0.715569372663805
4518022470	0.609074909560959	0.421792185912696
4536022440	0.675067875145836	-0.355877529855701
4554022410	0.0225618386205337	-0.763953100848709
4572022380	-0.650694854655581	-0.363787559777119
4590022350	-0.580826225977217	0.432284217533262
4608022320	0.179756225697982	0.70673277291071
4626022290	0.73542727717939	0.138988784193109
4644022260	0.471045176736458	-0.595053482827253
4662022230	-0.299426457736408	-0.685904612173937
4680022200	-0.727580705682976	-0.0369493490176433
4698022170	-0.324760512304243	0.646091929953872
4716022140	0.473321238320891	0.560556724302012
4734022110	0.722071953251221	-0.196316759758848
4752022080	0.153188463450792	-0.731285365231282
4770022050	-0.567126127631594	-0.47351757466859
4788022020	-0.671296071216814	0.288742421776637
4806021990	-0.0138354638904234	0.731052007999383
4824021960	0.67087566188348	0.303961927624985
4842021930	0.561953234198005	-0.483751180027903
4860021900	-0.162290961782119	-0.726762592866389
4878021870	-0.712902794740241	-0.212355785764718
4896021840	-0.512807143863472	0.532147591956988
4914021810	0.274295803483811	0.678529523429263
4932021780	0.733509313906472	0.0122701837536169
4950021750	0.335329419588816	-0.66277263171932
4968021720	-0.411897850081138	-0.628146512634463
4986021690	-0.752102097145021	0.0415854040589744
5004021660	-0.293632996149836	0.677904166281207
5022021630	0.503324167480171	0.52602160264723
5040021600	0.694275275016609	-0.242861343446299
5058021570	0.125191726246357	-0.745586417570249
5076021540	-0.576945281844583	-0.503409949169243
5094021510	-0.708627586305577	0.249665466202695
5112021480	-0.069559806692721	0.727122639881691
5130021450	0.640794654977246	0.351331138062149
5148021420	0.61962851282925	-0.425458362715077
5166021390	-0.0458049637803426	-0.768065457543642
5184021360	-0.675763976486341	-0.359096302780999
5202021330	-0.61560295731851	0.415093884774043
5220021300	0.11654238187329	0.719848674701094
5238021270	0.71724521938461	0.204993074619827
5256021240	0.538851118492566	-0.540751808709133
5274021210	-0.187232103934009	-0.744658200692464
5292021180	-0.725251057260501	-0.204204225587302
5310021150	-0.503131528803257	0.538470256538778
5328021120	0.269175359309161	0.688746499881427
5346021090	0.749468818620957	0.0777618149900673
5364021060	0.442557641560808	-0.624125800246571
5382021030	-0.318819845698137	-0.687843742166669
5400021000	-0.742180616105338	-0.0496794287232422
5418020970	-0.385801424359031	0.630495331141217
5436020940	0.390024966272247	0.639185048539322
5454020910	0.756979154421069	-0.049825952543462
5472020880	0.310695026239611	-0.687164739686449
5490020850	-0.442419726993092	-0.598292171770207
5508020820	-0.735332044309459	0.092874283854166
5526020790	-0.278006110096783	0.692443881309119
5544020760	0.490687635878581	0.565533735414955
5562020730	0.717932501782482	-0.19194665122682
5580020700	0.150975026998388	-0.721624804216978
5598020670	-0.561227690542687	-0.489681058852234
5616020640	-0.71189356728625	0.230025091285523
5634020610	-0.148481394424529	0.731969558739927
5652020580	0.582930218479589	0.448186156202701
5670020550	0.64308466388588	-0.342303879505273
5688020520	-0.0108372017134631	-0.732916116314664
5706020490	-0.646470922433422	-0.37015066799711
5724020460	-0.648654511841175	0.364846514283689
5742020430	0.0272522375038327	0.727897205604962
5760020400	0.663661854605436	0.26190636286524
5778020370	0.516307851425757	-0.501114931855435
5796020340	-0.19293552049897	-0.710804898101419
5814020310	-0.712523751831896	-0.199697159677263
5832020280	-0.501522305432305	0.519127744686376
5850020250	0.262980770297289	0.652038112090832
5868020220	0.70157882756039	0.0134016682943431
5886020190	0.334404198226385	-0.641866395392701
5904020160	-0.394805225940246	-0.616937207584228
5922020130	-0.719359058851539	0.0435333656608458
5940020100	-0.256214951055043	0.645818663056843
5958020070	0.498195611634002	0.481081461554913
5976020040	0.659700878451635	-0.255006241620794
5994020010	0.0842085078455351	-0.715596040238242
6012019980	-0.582373284112127	-0.404417392204527
6030019950	-0.596741498944779	0.342778258814082
6048019920	0.0790276637110833	0.680660882237365
6066019890	0.664525455576489	0.216921002326509
6084019860	0.494985024294974	-0.506191183486305
6102019830	-0.228861332007439	-0.659393920610718
6120019800	-0.679964069140978	-0.0683621977123738
6138019770	-0.338339570616357	0.590056098206605
6156019740	0.399582480811486	0.568888442426785
6174019710	0.691864405892762	-0.115896684009264
6192019680	0.188666032328456	-0.667511374716291
6210019650	-0.522095168638638	-0.442964667849073
6228019620	-0.627947987970987	0.287482977149473
6246019590	-0.0265632765295031	0.702773592187892
6264019560	0.617512030409903	0.338986231640698
6282019530	0.557535285021262	-0.410258376835205
6300019500	-0.151525634633319	-0.667709099655426
6318019470	-0.678511277081783	-0.151575925774801
6336019440	-0.462148457832882	0.539423341883028
6354019410	0.258851409343468	0.66292824868403
6372019380	0.697358907924396	0.0464962282909721
6390019350	0.31532285331632	-0.612368496026739
6408019320	-0.425052478976321	-0.561767625790584
6426019290	-0.715591495963908	0.0977472803302176
6444019260	-0.272285441061805	0.669398223771938
6462019230	0.465187486654795	0.528888658913686
6480019200	0.661042543147684	-0.214194192659073
6498019170	0.0831970895775037	-0.702894268834854
6516019140	-0.586890955774527	-0.429523873826769
6534019110	-0.67529900893095	0.281839275469743
6552019080	-0.079458606754255	0.713174541314383
6570019050	0.597202202474135	0.364877740052193
6588019020	0.581705133469827	-0.396241636516515
6606018990	-0.08836083301957	-0.721113426860858
6624018960	-0.673751491967608	-0.293878528486273
6642018930	-0.584882136319773	0.427569399703883
6660018900	0.110692343487561	0.699512449908699
6678018870	0.681602886491316	0.199775932485878
6696018840	0.499121551334551	-0.526971460071723
6714018810	-0.216005669561322	-0.70078037486003
6732018780	-0.708280652953245	-0.162982204891129
6750018750	-0.470618976761311	0.536868153382616
6768018720	0.266697009846625	0.663200997597685
6786018690	0.722647638624273	0.0701686285026443
6804018660	0.415474018996785	-0.603395884951273
6822018630	-0.320380978267408	-0.650287308186944
6840018600	-0.713253631468352	-0.0247063886312646
6858018570	-0.353419363327744	0.618500330685394
6876018540	0.384364338004659	0.614978284646379
6894018510	0.731653315431099	-0.03697191078864
6912018480	0.314163458597993	-0.650579685223782
6930018450	-0.426013512989337	-0.56701513031906
6948018420	-0.699504025493691	0.117813548825038
6966018390	-0.243246489482615	0.686132963997055
6984018360	0.471943643847072	0.561557515796888
7002018330	0.710795986412238	-0.132786844553005
7020018300	0.197808934922387	-0.676775112524234
7038018270	-0.518490142521141	-0.472330603871067
7056018240	-0.674923188627277	0.242902702478295
7074018210	-0.135407022099525	0.716809058089173
7092018180	0.544895575495083	0.472082671187227
7110018150	0.651497961426257	-0.259942968093598
7128018120	0.0349189691154813	-0.691176847232773
7146018090	-0.614860353002419	-0.343974749648558
7164018060	-0.618176950363511	0.372372868658552
7182018030	0.00407786804310827	0.717726075883218
7200018000	0.615062131358566	0.329325161158125
7218017970	0.548269093097006	-0.408705374643897
