!Keysight Technologies N9917A: A.12.46
!Date: Friday, 22 December 2023 20:23:30
!TimeZone: (UTC-03:00) Buenos Aires!Model: N9917A
!Serial: MY56072049
!GPS Latitude: 
!GPS Longitude: 
!GPS TimeStamp: 0001-01-01 00:00:00Z
!GPS Seconds Since Last Read: 0
!CHECKSUM:1944140253
!Correction: S11(ON U)
!S1P File: Measurement: S11:
# Hz S RI R 50
30000	1.00034614105271	0.000574186125228516
18029970	0.998702773999039	-0.000156066557081937
36029940	0.997710777974924	0.00189985436326416
54029910	1.00111210156271	-0.000532650125491501
72029880	1.00295451171967	-0.00639137311990956
90029850	0.997767614408275	-0.0115346340053508
108029820	0.996915296693285	-0.00966697943073844
126029790	0.995577073179483	-0.00866683216946519
144029760	0.991597189626849	-0.0110125387036627
162029730	0.992156373041841	-0.0160806184112164
180029700	0.995598863639643	-0.0148230810358941
198029670	0.993321696891268	-0.0152272335792179
216029640	0.992081088329921	-0.0140338556333439
234029610	0.991972049405085	-0.0135344030250056
252029580	0.991790726609027	-0.0158114529278767
270029550	0.991852864585508	-0.0187258979550997
288029520	0.992532739418423	-0.0196561797890693
306029490	0.991025469711393	-0.0210984274219564
324029460	0.987879574257339	-0.0206583986603837
342029430	0.98970143328358	-0.0203397164015361
360029400	0.990297711474866	-0.0230821684317659
378029370	0.989556982051107	-0.023224230480242
396029340	0.989769968676689	-0.0238258351751798
414029310	0.987374667182245	-0.0228259997795385
432029280	0.988004759512353	-0.0244965628479833
450029250	0.988980566920059	-0.0266380966383322
468029220	0.988090415158257	-0.0285087531761148
486029190	0.988388288621432	-0.0273206585142956
504029160	0.987264412055532	-0.0265040536014226
522029130	0.985252700175472	-0.0276610944530484
540029100	0.985368400732737	-0.0295764773562429
558029070	0.986113933010648	-0.0297596345821315
576029040	0.985742765933461	-0.0320272369349519
594029010	0.984389757895998	-0.0321176823558678
612028980	0.985505079896124	-0.032935069887498
630028950	0.986039948032948	-0.0337437226080334
648028920	0.9864672730957	-0.0340185219400342
666028890	0.98365069203853	-0.0338102732980353
684028860	0.98453479457955	-0.034320146254211
702028830	0.985427731886608	-0.0352449464238046
720028800	0.986975432298748	-0.0347392567793126
738028770	0.985908147173163	-0.0361395354780198
756028740	0.984241502195705	-0.0363567470410789
774028710	0.982083846446109	-0.0374949622241758
792028680	0.984227877978778	-0.0378896420680931
810028650	0.985679637955075	-0.0372440588841572
828028620	0.98465210181416	-0.0369538648954039
846028590	0.985056081521867	-0.0368747052948799
864028560	0.981088697004711	-0.0402379775156592
882028530	0.983469966205515	-0.0399033381368285
900028500	0.985458178363017	-0.0388749047648224
918028470	0.985455212581601	-0.0380753849061656
936028440	0.981722637295815	-0.0392579010428064
954028410	0.982079424867083	-0.041141349359334
972028380	0.980067715392935	-0.0438772573310628
990028350	0.984745109265307	-0.043697617031595
1008028320	0.98600380859691	-0.041536254494759
1026028290	0.98481920355972	-0.0392687707414421
1044028260	0.979437001663233	-0.0436861136937953
1062028230	0.981432180420916	-0.043566656424496
1080028200	0.984351520229849	-0.0463774311662265
1098028170	0.984571286462093	-0.0451929681992752
1116028140	0.985541227551345	-0.0442678723863336
1134028110	0.984090461664875	-0.0455599785024273
1152028080	0.980987808655649	-0.0461558769560423
1170028050	0.980801248249252	-0.0487336016378462
1188028020	0.982379604845528	-0.0499469401777452
1206027990	0.983541366302403	-0.0476081704622907
1224027960	0.984052904144694	-0.0474854399067643
1242027930	0.97981181856963	-0.0487151287633653
1260027900	0.979618347579768	-0.0544073350204127
1278027870	0.977532170541234	-0.0528636917031554
1296027840	0.979473180098484	-0.0524291826975768
1314027810	0.982553538609316	-0.0493936551826804
1332027780	0.979592034326718	-0.0533380211133424
1350027750	0.977451549459881	-0.0557941188510699
1368027720	0.974949566328979	-0.0593170184396758
1386027690	0.976177882900833	-0.0586120173350428
1404027660	0.979779790687022	-0.0578745135922534
1422027630	0.98084644754653	-0.0574505247857728
1440027600	0.979136857596148	-0.0596396129065953
1458027570	0.970953867155693	-0.0643167000475903
1476027540	0.967744892104689	-0.0670302655989253
1494027510	0.975983119362265	-0.0650355327059754
1512027480	0.98357965448973	-0.0615958681606935
1530027450	0.982682428493443	-0.0637630694003157
1548027420	0.972928391211932	-0.0680997197195323
1566027390	0.958671039631041	-0.0670528391613663
1584027360	0.96047559398503	-0.073237045095574
1602027330	0.980438069772508	-0.0765504048455278
1620027300	0.99484652700519	-0.0748452118790747
1638027270	0.984265457315203	-0.0726515537070959
1656027240	0.961583889476004	-0.0653683932696261
1674027210	0.952408092673086	-0.0604142084503965
1692027180	0.95050446504506	-0.0747027735829767
1710027150	0.979450888134237	-0.097355638818412
1728027120	0.995679417571012	-0.0943122355423681
1746027090	0.974881016446208	-0.0802571025551891
1764027060	0.96334297912459	-0.0597025131702786
1782027030	0.960798738849678	-0.0563954435686822
1800027000	0.960208179128909	-0.0767833357938267
1818026970	0.975389437770751	-0.104257062727961
1836026940	0.978647873574687	-0.100319481145628
1854026910	0.970128723730154	-0.0793788762045007
1872026880	0.968740018822216	-0.0652265412079496
1890026850	0.965995929021712	-0.0644657104714996
1908026820	0.967087185622265	-0.0851819851153726
1926026790	0.971114653464178	-0.102446219642685
1944026760	0.970155176835316	-0.0941493190288199
1962026730	0.972224480009145	-0.075460779273143
1980026700	0.971613588144895	-0.0691545577561692
1998026670	0.968599039324144	-0.0727637563295563
2016026640	0.965400107644619	-0.0902865821084395
2034026610	0.967817786149172	-0.0955081098142939
2052026580	0.970169255851263	-0.0885713269518554
2070026550	0.973177689715443	-0.0754923710681731
2088026520	0.976223529854748	-0.0701448729425005
2106026490	0.970871409978037	-0.0756260803169368
2124026460	0.965677391546702	-0.0893730132810226
2142026430	0.967270956400146	-0.0953256455726998
2160026400	0.973431691849772	-0.0853995313813447
2178026370	0.975563390544555	-0.0738772349607493
2196026340	0.973782823205707	-0.0695969916852
2214026310	0.969436878184772	-0.0775877023517354
2232026280	0.968622768550505	-0.0924960556737546
2250026250	0.972098906654827	-0.0909841128252091
2268026220	0.975982745099156	-0.0810904021342853
2286026190	0.974615149429921	-0.0724464477992349
2304026160	0.972837703408362	-0.0701711882630203
2322026130	0.969688234976236	-0.082248618195205
2340026100	0.970146518278128	-0.0905739810645986
2358026070	0.973615951930456	-0.090549071796952
2376026040	0.975212973401957	-0.0800410001757997
2394026010	0.972231698220546	-0.0764043282890535
2412025980	0.969032660322534	-0.0766632874810434
2430025950	0.970569377869004	-0.0856922452067164
2448025920	0.969053311312185	-0.0923083044333064
2466025890	0.973749650311787	-0.0853461291450044
2484025860	0.972070327032238	-0.0802165731542524
2502025830	0.972110588736002	-0.0773358700565157
2520025800	0.971295657947713	-0.0793481655017505
2538025770	0.971243824659702	-0.0898703489329404
2556025740	0.971120012681426	-0.0945091269918105
2574025710	0.970726329517004	-0.0905797205223305
2592025680	0.971180632920491	-0.0856280454004083
2610025650	0.972154749660389	-0.0847506306533125
2628025620	0.970521926956291	-0.0888692516021424
2646025590	0.966234794832574	-0.0929151582163028
2664025560	0.964553194657917	-0.0981022080834758
2682025530	0.96767721259364	-0.0969567985975847
2700025500	0.968300726824867	-0.092576620300966
2718025470	0.971011938515232	-0.090951691974747
2736025440	0.969711402555076	-0.0935994545173923
2754025410	0.965477888166895	-0.101292747284002
2772025380	0.96476995257089	-0.103566331585754
2790025350	0.966251317296247	-0.104093424142968
2808025320	0.970081817161123	-0.100869319157966
2826025290	0.968698906277804	-0.0988608197210036
2844025260	0.963865471049432	-0.104474924887196
2862025230	0.95966747556003	-0.110727759089482
2880025200	0.959856523626036	-0.114550146922049
2898025170	0.962393519304426	-0.116630411238238
2916025140	0.965662282781658	-0.109591077711023
2934025110	0.961358785813744	-0.112088525800847
2952025080	0.956345171377174	-0.117350751660645
2970025050	0.956082639679053	-0.122996903708621
2988025020	0.959628857288812	-0.123146334720659
3006024990	0.959133040262647	-0.12182793881598
3024024960	0.96018572179628	-0.122382205381657
3042024930	0.954937543084302	-0.125089333656736
3060024900	0.953348696612232	-0.129454900308738
3078024870	0.954469245008293	-0.13205897122623
3096024840	0.955156285141176	-0.132499071186387
3114024810	0.954799610527979	-0.128396970047737
3132024780	0.952076376178906	-0.128942714849721
3150024750	0.952881063142401	-0.133868326099934
3168024720	0.952242592128301	-0.136981748073021
3186024690	0.953977565643761	-0.136327596633044
3204024660	0.949864428703446	-0.137066563576574
3222024630	0.948438320023736	-0.135773829225487
3240024600	0.950052785071373	-0.139440154889727
3258024570	0.951496146214849	-0.14000294374857
3276024540	0.954147740491028	-0.134459486435751
3294024510	0.950816192691187	-0.134280548111781
3312024480	0.948783990490173	-0.135355196039297
3330024450	0.950185733200903	-0.138385635779462
3348024420	0.954632938526726	-0.139530803528236
3366024390	0.955061087705184	-0.136848914835427
3384024360	0.955709759755506	-0.13343726042735
3402024330	0.951994668929871	-0.131645949763418
3420024300	0.954711173606678	-0.130513052784342
3438024270	0.957439425295532	-0.135184745750553
3456024240	0.956993954021464	-0.135609811301999
3474024210	0.954261293155227	-0.129911922018743
3492024180	0.955153066396877	-0.125218350146268
3510024150	0.956398407820939	-0.125782833562642
3528024120	0.957968772401822	-0.12694545663608
3546024090	0.95920896506567	-0.130232408514193
3564024060	0.95740702927127	-0.130071320328044
3582024030	0.9579776527828	-0.123841592780524
3600024000	0.958682917757832	-0.122250548142708
3618023970	0.960226533430185	-0.120634440104695
3636023940	0.960487801200461	-0.123042852374571
3654023910	0.958465031478023	-0.125118160304327
3672023880	0.960657071676056	-0.120018045254034
3690023850	0.961443351589585	-0.115368743076339
3708023820	0.962081874855698	-0.112417528069942
3726023790	0.964428525745167	-0.112664910829869
3744023760	0.961579726774679	-0.11848176280288
3762023730	0.961679338421982	-0.119238664317534
3780023700	0.964111142766934	-0.115497195972319
3798023670	0.96511106327023	-0.110430560072913
3816023640	0.965297220344843	-0.10757115684226
3834023610	0.96258209369975	-0.110034566992567
3852023580	0.96204251830321	-0.115299262952441
3870023550	0.965440882944973	-0.115420939599724
3888023520	0.966799707537458	-0.112355063933428
3906023490	0.968218381761681	-0.109205814332291
3924023460	0.966644408324805	-0.104709667259427
3942023430	0.965279698354244	-0.108706467637045
3960023400	0.963216328210784	-0.113324093199241
3978023370	0.964336717804049	-0.116955707821763
3996023340	0.966314695963167	-0.115776004591999
4014023310	0.962778717953721	-0.112035162523675
4032023280	0.962026427828595	-0.109560078096161
4050023250	0.958021843278406	-0.111592714620813
4068023220	0.963466751891092	-0.120305857197315
4086023190	0.962974173394125	-0.123909000670496
4104023160	0.961470710821729	-0.120639899551457
4122023130	0.961369395937398	-0.116583084817344
4140023100	0.960823251674576	-0.114565365787829
4158023070	0.959918215833956	-0.120514817316945
4176023040	0.957401176784464	-0.129178247750763
4194023010	0.956850090574751	-0.13477693010148
4212022980	0.957664315269686	-0.129148905394856
4230022950	0.959685257610159	-0.126749070355153
4248022920	0.95672743809672	-0.126196697755803
4266022890	0.955677289683445	-0.133525327275774
4284022860	0.947846123031112	-0.146310888051286
4302022830	0.949179215804291	-0.149328098553979
4320022800	0.954646236987926	-0.144100155090655
4338022770	0.955075746401692	-0.140887917170225
4356022740	0.949793232796671	-0.142852283522457
4374022710	0.94253462572986	-0.156725450858623
4392022680	0.939495575411025	-0.167687250312331
4410022650	0.94183502196469	-0.168854109884755
4428022620	0.943508509719896	-0.160399945585892
4446022590	0.947615143892898	-0.157294582720699
4464022560	0.939738200740328	-0.164602194402394
4482022530	0.929643530085	-0.177606379552056
4500022500	0.930244412808822	-0.191902566640735
4518022470	0.938119880228069	-0.190504109994506
4536022440	0.938572336173278	-0.182331206339589
4554022410	0.933586133975861	-0.179815001881116
4572022380	0.925034390573179	-0.189419653506319
4590022350	0.921030128158005	-0.204530982332835
4608022320	0.927968361819505	-0.209347564226517
4626022290	0.932474798587229	-0.202344151184859
4644022260	0.930340613273874	-0.196822053090371
4662022230	0.922083216403151	-0.197556672081553
4680022200	0.921567393410776	-0.207225866260568
4698022170	0.921272165993619	-0.217591273403162
4716022140	0.92621327036253	-0.218905237042976
4734022110	0.928059344770009	-0.209476141404598
4752022080	0.927746454855998	-0.202652974879636
4770022050	0.926414274067848	-0.199593845262381
4788022020	0.925614589522367	-0.206358871056207
4806021990	0.924587984021564	-0.210395014448624
4824021960	0.927937057695197	-0.211101315527385
4842021930	0.930786406359239	-0.200853012476933
4860021900	0.936412257151477	-0.191639093846924
4878021870	0.9348298073943	-0.186363054086173
4896021840	0.933269550419436	-0.192184413947255
4914021810	0.928903563861156	-0.198648741216795
4932021780	0.935436941423023	-0.193750210503531
4950021750	0.944311065628605	-0.182496055745867
4968021720	0.948233892731083	-0.171050387394235
4986021690	0.944292830449095	-0.170585198501442
5004021660	0.937525650564764	-0.179502660586646
5022021630	0.939036083463331	-0.181275942319255
5040021600	0.949950927456755	-0.173170610631101
5058021570	0.950901789381494	-0.153129879458302
5076021540	0.952961930190502	-0.150890584273568
5094021510	0.949326004832263	-0.15571038123478
5112021480	0.944587480924276	-0.16437619610305
5130021450	0.955932154603859	-0.162767409703104
5148021420	0.95537637405679	-0.14805586565209
5166021390	0.958649418638585	-0.138795831860293
5184021360	0.952790409035335	-0.137631941063753
5202021330	0.950304302200402	-0.145309334717204
5220021300	0.952047916858335	-0.151384464527064
5238021270	0.961665607917533	-0.14618462380492
5256021240	0.9629402453687	-0.13417976231626
5274021210	0.9593369709203	-0.129358405788134
5292021180	0.956328895859514	-0.132313560337397
5310021150	0.955494402920116	-0.137067376459919
5328021120	0.955477364341758	-0.140697946997145
5346021090	0.962572013584275	-0.135457657107829
5364021060	0.961790379190053	-0.130196024386359
5382021030	0.959882683007882	-0.129573886178281
5400021000	0.960295161400797	-0.134506208878382
5418020970	0.956625756219215	-0.138680787509899
5436020940	0.958628547732403	-0.138165168549646
5454020910	0.958478332629643	-0.135916644085523
5472020880	0.957858638947806	-0.132449750129539
5490020850	0.960042466885201	-0.133694681695253
5508020820	0.95373165357811	-0.129995124921002
5526020790	0.957995105577295	-0.137167381804358
5544020760	0.953576664395547	-0.142535927097477
5562020730	0.951629614157337	-0.145067684204172
5580020700	0.952555485573567	-0.146036638794146
5598020670	0.959876094489486	-0.137742485660161
5616020640	0.956165168919977	-0.139143944975529
5634020610	0.948894697280728	-0.148354380361805
5652020580	0.946032690468575	-0.15778578854156
5670020550	0.94811050297152	-0.160994183181857
5688020520	0.954431101876068	-0.158961633082659
5706020490	0.951872955112676	-0.153460906601026
5724020460	0.945181046567147	-0.158145900718146
5742020430	0.937397514807109	-0.175963755737382
5760020400	0.932786767094228	-0.188176616703602
5778020370	0.942592629388239	-0.185450421446839
5796020340	0.9446869902839	-0.175653418306741
5814020310	0.935801283106444	-0.177376478051415
5832020280	0.925700465600842	-0.190748460929176
5850020250	0.921391964633561	-0.206780135494618
5868020220	0.923451952703822	-0.214915624369297
5886020190	0.930454177561139	-0.207001816851341
5904020160	0.926385666536342	-0.201831018267628
5922020130	0.917316773358469	-0.211089458995899
5940020100	0.9067556832072	-0.229706673447902
5958020070	0.909133458665189	-0.245495645336786
5976020040	0.911222286609924	-0.240306140501722
5994020010	0.912930606947535	-0.235730663024593
6012019980	0.903414297569531	-0.239549947583305
6030019950	0.893594873244396	-0.254334365817965
6048019920	0.899076964872408	-0.271887106508711
6066019890	0.90418529790384	-0.266282226837149
6084019860	0.897641156542188	-0.265523726201092
6102019830	0.890407820496776	-0.269131275277982
6120019800	0.884556316171811	-0.274608631633417
6138019770	0.894118714840174	-0.282347746670077
6156019740	0.894410682454541	-0.281142508162082
6174019710	0.891724955436082	-0.280296241736413
6192019680	0.88675335300523	-0.280668580734667
6210019650	0.890253618539577	-0.279994790455452
6228019620	0.902429175816189	-0.278095685876139
6246019590	0.903264313525555	-0.272380520527968
6264019560	0.898564658338852	-0.270464959116741
6282019530	0.894762004587244	-0.275316981855273
6300019500	0.90145411798526	-0.271499141806105
6318019470	0.907955763263473	-0.260350357404012
6336019440	0.915228965725452	-0.252302304975477
6354019410	0.912572578225994	-0.248508182979444
6372019380	0.904682811550785	-0.255209303126168
6390019350	0.911689120283756	-0.255562964244078
6408019320	0.926032074716566	-0.240862715404624
6426019290	0.932531526692259	-0.221793492702561
6444019260	0.926259989056211	-0.22021337191344
6462019230	0.92176086801059	-0.225739383498262
6480019200	0.927166029457176	-0.226926965785835
6498019170	0.936647512684356	-0.214728343319507
6516019140	0.942083060045446	-0.196474922378736
6534019110	0.943912254834023	-0.189259252942396
6552019080	0.934254142501447	-0.192869596895106
6570019050	0.935696128728569	-0.197249907230497
6588019020	0.943321948295711	-0.194899851506663
6606018990	0.947758625200465	-0.182554756727804
6624018960	0.946938512227465	-0.171902378738479
6642018930	0.944087667980309	-0.172294613906226
6660018900	0.942233697523582	-0.177063211524277
6678018870	0.94828851150252	-0.181439900711703
6696018840	0.951118108053765	-0.168394355468902
6714018810	0.952158845469453	-0.160907707513748
6732018780	0.948875367046728	-0.159497664661878
6750018750	0.951333993100161	-0.162116359351913
6768018720	0.951467367134186	-0.16418277881492
6786018690	0.9557649912023	-0.16057478166304
6804018660	0.950507141512475	-0.154607708054523
6822018630	0.951127544501181	-0.156068545673791
6840018600	0.950043593877493	-0.158110059572676
6858018570	0.956949225338611	-0.15936208210414
6876018540	0.953161605573365	-0.156065366581532
6894018510	0.956958746699319	-0.155655032508768
6912018480	0.950279347414293	-0.154340339467746
6930018450	0.950349775746426	-0.156452950723824
6948018420	0.952326395486359	-0.158456626765273
6966018390	0.95806700204101	-0.151886309351092
6984018360	0.948127960286139	-0.155391068231101
7002018330	0.946528452666058	-0.158216507792951
7020018300	0.944033449163259	-0.166675049029216
7038018270	0.948406858927871	-0.168109489681064
7056018240	0.94885439934573	-0.166608542945416
7074018210	0.949525414325738	-0.163167134201196
7092018180	0.942658305664306	-0.169434760834932
7110018150	0.937621873801541	-0.178286819549054
7128018120	0.936228324410508	-0.184228663570085
7146018090	0.942066142088305	-0.182874429939288
7164018060	0.941357192280007	-0.182103348014678
7182018030	0.936757195270343	-0.183355830010797
