!Keysight Technologies N9917A: A.12.46
!Date: Wednesday, 08 November 2023 22:05:14
!TimeZone: (UTC-03:00) Buenos Aires!Model: N9917A
!Serial: MY56072049
!GPS Latitude: 
!GPS Longitude: 
!GPS TimeStamp: 0001-01-01 00:00:00Z
!GPS Seconds Since Last Read: 0
!CHECKSUM:1190943223
!Correction: S11(ON U)
!S1P File: Measurement: S11:
# Hz S RI R 50
30000	1.00403065019681	0.00034067702931867
1829997	1.00614648612171	0.0019915337088667
3629994	1.00472971353452	0.00190166646655156
5429991	1.00297313819519	0.000897887740832923
7229988	1.00127534113257	0.00269891369506011
9029985	0.999138236984202	0.00378559221028296
10829982	0.997443006360799	0.00373646669071177
12629979	0.993913584543078	0.00301295602840002
14429976	0.992327177387946	0.00424589330261379
16229973	0.990586890257529	0.00552014321069304
18029970	0.986101489987165	0.00667580959621909
19829967	0.983109568432154	0.0052568127702788
21629964	0.981248943835854	0.0061609104884645
23429961	0.976991570418181	0.00526017087095888
25229958	0.974792886535317	0.00506895611133758
27029955	0.970993018573935	0.00480442232795908
28829952	0.968674949076756	0.00253653801178051
30629949	0.964854493949773	0.0034397923143918
32429946	0.962283266131711	0.00333004751961459
34229943	0.958780750836002	0.00276439028653483
36029940	0.95784250302244	0.00437611281057182
37829937	0.957423009005408	0.00139352822092734
39629934	0.95541606075037	6.30987866388488E-05
41429931	0.95306937955896	-6.05036538883219E-05
43229928	0.951250865699913	-0.000634382594382393
45029925	0.950100406887085	-0.0044407173395842
46829922	0.95136313752753	-0.00251908650187313
48629919	0.949391041075512	-0.00583423120930482
50429916	0.95110550897823	-0.0039133788073949
52229913	0.952134122629	-0.00588956445895128
54029910	0.953315154884719	-0.0075138026527754
55829907	0.955035597523224	-0.00697001449131429
57629904	0.956417609289259	-0.00809015540596472
59429901	0.957969988131673	-0.00878480970358866
61229898	0.959382569108568	-0.00866004789403549
63029895	0.96227064896385	-0.00839243123604247
64829892	0.966632775433941	-0.00892477027434693
66629889	0.967620674839674	-0.0101954233069529
68429886	0.97112503180601	-0.00926385012254652
70229883	0.974236148960134	-0.00850641073652414
72029880	0.977547338300792	-0.0100007439298072
73829877	0.979899010561056	-0.00884731139237344
75629874	0.981524737006263	-0.00800921858790399
77429871	0.98563095570011	-0.00785409126722914
79229868	0.989268422883844	-0.00653340982405198
81029865	0.992086080178955	-0.00553885416262234
82829862	0.993354383190275	-0.00437074287169603
84629859	0.994915400812997	-0.00389641852800915
86429856	0.996414247601623	-0.00395563108171693
88229853	0.998033286577422	-0.00289407602884645
90029850	0.999972138690939	-0.00139186183471185
91829847	0.999531603330605	-0.000326782145677107
93629844	1.00112230664772	0.000176230495526786
95429841	1.00107169018665	0.00165752184709966
97229838	0.999748430747785	0.00237055747020154
99029835	0.999260701097421	0.00223254519979355
100829832	0.998638399314903	0.0030557551967838
102629829	0.996701142294678	0.0037942870005595
104429826	0.99587986868124	0.00337213058728769
106229823	0.993445115714389	0.0047242782335381
108029820	0.992213375970293	0.00448651101939768
109829817	0.989683238768073	0.00386919600496588
111629814	0.988775453463567	0.00441650992839049
113429811	0.985802108338713	0.00396318238971483
115229808	0.983829551531589	0.00362589340932551
117029805	0.980840735510909	0.00307436627459212
118829802	0.979628503796864	0.00199635787981589
120629799	0.976278253848218	0.00286082996700215
122429796	0.973326224586908	-0.00018524818919663
124229793	0.968737725040809	0.00064653442795426
126029790	0.9671800722953	0.000315793652493623
127829787	0.966503354178128	-0.00097704019882916
129629784	0.963783406890124	-0.00249996681674747
131429781	0.963025480935438	-0.00184115170614213
133229778	0.962261586244499	-0.00494506967337455
135029775	0.959199661456255	-0.00573328077208218
136829772	0.956641147955016	-0.00719640010410999
138629769	0.956761488398293	-0.007193752739791
140429766	0.957281711409669	-0.0062062211394539
142229763	0.955878175161235	-0.0100443765674104
144029760	0.955901195494599	-0.00971961599175708
145829757	0.957104161203334	-0.0115033094550774
147629754	0.958118894454317	-0.0103252522552176
149429751	0.960426736665722	-0.0135563379950459
151229748	0.961277126712078	-0.0118903315200695
153029745	0.961328539620817	-0.013088998318701
154829742	0.9611364935401	-0.0136746715973906
156629739	0.965068513134303	-0.0119940895541934
158429736	0.96543668833904	-0.0136804638480965
160229733	0.966805337775199	-0.0135337081610453
162029730	0.971033435389145	-0.0118919193683765
163829727	0.973596064377134	-0.0123331595263571
165629724	0.975097167420383	-0.0121244629684335
167429721	0.977353365865976	-0.0125708500351763
169229718	0.980108962962165	-0.0114117598778021
171029715	0.980108472615056	-0.00921894181972904
172829712	0.983812786041096	-0.00987450799952355
174629709	0.98592554619431	-0.0087511266047211
176429706	0.986829300754047	-0.00722846566140445
178229703	0.988323981938887	-0.00554714641723753
180029700	0.98918801153641	-0.00531259200644763
181829697	0.990641041264504	-0.00395720300678448
183629694	0.990002478338249	-0.00200208544920444
185429691	0.99160112760228	-0.00246019649826079
187229688	0.992853617434657	-0.00290735045333712
189029685	0.994637493734322	-0.00147621964856121
190829682	0.991485308035443	0.000698024177437528
192629679	0.990674447034181	0.000864846979553802
194429676	0.990255653580724	-0.000652461881948341
196229673	0.991328927489067	0.00235345311687341
198029670	0.988701721902628	0.00199120000125519
199829667	0.989810540633596	0.00182811401397609
201629664	0.988060749997338	0.00142691831290664
203429661	0.986862643773497	0.00314849221313507
205229658	0.984466527909998	0.00156098181781461
207029655	0.980074709518882	0.00115707150882444
208829652	0.980278626821555	-0.000340749367609139
210629649	0.980560543227887	0.000484440558300936
212429646	0.978947742288068	-0.00137874475300781
214229643	0.976445693033565	-0.00170027625057834
216029640	0.977248048164355	-0.00120435483435322
217829637	0.973910903802475	-0.00253606428321584
219629634	0.972012316286952	-0.00376703083824292
221429631	0.971129189413268	-0.0058912345744534
223229628	0.970113602283741	-0.00642555986107229
225029625	0.969683121761267	-0.00727132942822334
226829622	0.968051894690324	-0.00921209761874875
228629619	0.967898189980783	-0.0120113607500948
230429616	0.965974285728484	-0.0136501599621634
232229613	0.965748250728969	-0.0121454924026508
234029610	0.966257552820919	-0.0139624671139503
235829607	0.967070547752493	-0.0130590610589063
237629604	0.967331140293042	-0.0160479600609765
239429601	0.967415789772515	-0.0152712561782912
241229598	0.965243712611875	-0.0182085130611185
243029595	0.969667513277997	-0.0152867845272913
244829592	0.969641585738761	-0.0169204584876683
246629589	0.970479795764503	-0.0178952595373096
248429586	0.971547793916684	-0.0183743434851993
250229583	0.970913995363684	-0.0180372968679974
252029580	0.972450132011273	-0.0165680153824784
253829577	0.974111086704288	-0.0180310617414589
255629574	0.975031996001555	-0.0179730834281985
257429571	0.976551267537296	-0.0137547287902638
259229568	0.979213793280124	-0.0159077261709411
261029565	0.977164811162376	-0.0144407293081548
262829562	0.978753558579045	-0.0153010321656487
264629559	0.979528700420662	-0.0145837306135722
266429556	0.981012418292631	-0.0123677138063736
268229553	0.980567606013992	-0.0137306936480701
270029550	0.980258273169136	-0.0131897156253811
271829547	0.980644414958025	-0.0114420536943411
273629544	0.982357549016518	-0.00898772877853488
275429541	0.982340423377342	-0.00881333097554243
277229538	0.980080670486586	-0.00832299382357615
279029535	0.979342863890017	-0.00643066233593986
280829532	0.980185278578174	-0.00509830643787224
282629529	0.979772303158716	-0.0045592581051806
284429526	0.982263171237917	-0.00664930884385917
286229523	0.979712406797655	-0.00369095852328688
288029520	0.980233708416077	-0.00456236704821483
289829517	0.978965743088253	-0.0025889601111278
291629514	0.976516358878415	-0.00360330440804318
293429511	0.977268599300952	-0.00357197570202389
295229508	0.975320360658916	-0.00236461853169917
297029505	0.976994469253704	-0.0037735726254528
298829502	0.974404799635285	-0.00338781163015633
300629499	0.974232861256655	-0.00419840275165634
302429496	0.97310030873993	-0.00532513626077569
304229493	0.973219774589052	-0.00601988493686639
306029490	0.97359464889827	-0.00781046150649217
307829487	0.972611397796725	-0.0097985529197287
309629484	0.970359959130148	-0.00999628800618579
311429481	0.972509873581012	-0.0111435026990186
313229478	0.970525574552878	-0.0114831787810417
315029475	0.973224872913027	-0.0117703360604295
316829472	0.971293581614332	-0.0134970177927688
318629469	0.973811534124363	-0.0161321457684594
320429466	0.974186916506586	-0.0141480276077249
322229463	0.973406873561297	-0.0186857765700546
324029460	0.972508189908324	-0.0172156985176373
325829457	0.97457196044922	-0.0190804458180818
327629454	0.973194497426209	-0.0195540692729593
329429451	0.976309546609455	-0.0197656684589659
331229448	0.975375583133587	-0.0197191279592989
333029445	0.977166345736432	-0.0198384958009191
334829442	0.977779731115548	-0.021776128117998
336629439	0.980048137583331	-0.0195646445588551
338429436	0.979733471459416	-0.0222643755597484
340229433	0.979244734263189	-0.0209946898048539
342029430	0.978584571468033	-0.0221436261738588
343829427	0.981081077520227	-0.0236091468613915
345629424	0.983521967685665	-0.0223379166486322
347429421	0.983653417460619	-0.0214237267792819
349229418	0.981421600454723	-0.0198398873281564
351029415	0.98257719119385	-0.020059031469415
352829412	0.983396566063574	-0.0203665568161649
354629409	0.980257832853803	-0.0193151001296119
356429406	0.979392183651513	-0.0164326154885868
358229403	0.978766824004042	-0.0182915241546225
360029400	0.979551058118692	-0.0158885021536313
361829397	0.980357865777484	-0.0158054922677766
363629394	0.976208214430345	-0.0154667317610576
365429391	0.975160410262498	-0.0147817636075669
367229388	0.975763463656296	-0.0145689595193328
369029385	0.975187022948407	-0.0121490105952052
370829382	0.972413778274629	-0.0120237010000949
372629379	0.971485696720503	-0.0117327194306758
374429376	0.972504644093372	-0.0126353414218746
376229373	0.966728209587857	-0.011686099481083
378029370	0.968236306209785	-0.0128411284063432
379829367	0.966023166838993	-0.0111429445943405
381629364	0.961960223781603	-0.0118795961167665
383429361	0.965415998088021	-0.01022626225024
385229358	0.964404246597175	-0.0128767205275381
387029355	0.961506913810825	-0.0135184213079358
388829352	0.962769754104824	-0.0121221628490579
390629349	0.963666148365127	-0.0143819760970665
392429346	0.964574532734613	-0.0164699107028413
394229343	0.961284903538953	-0.0154601224625411
396029340	0.96085337568263	-0.0159603286348863
397829337	0.961347469162109	-0.0128360674599442
399629334	0.9628732375461	-0.0184595734525351
401429331	0.966262107007112	-0.0158384279604212
403229328	0.964051692309121	-0.0217975069623988
405029325	0.967981103385198	-0.0223206754085196
406829322	0.96563829137106	-0.0238509771986664
408629319	0.969924506684922	-0.0223201517052115
410429316	0.970159868235766	-0.023806519014324
412229313	0.972542313581607	-0.0248793915605918
414029310	0.971496505690365	-0.0255782643903838
415829307	0.974541959641165	-0.0243733306687434
417629304	0.97619232333114	-0.0277198003831679
419429301	0.977854670771847	-0.0266402389748575
421229298	0.979972567842555	-0.0279482813472381
423029295	0.982738064036017	-0.0283700967782882
424829292	0.981877732945328	-0.0286196078002961
426629289	0.984069140394852	-0.0273037668202602
428429286	0.987019604204823	-0.027895292733359
430229283	0.986058528279358	-0.0274369822395478
432029280	0.988050906393238	-0.0261743063833447
433829277	0.988615998802635	-0.0289383030709677
435629274	0.989568843080647	-0.0266391650043096
437429271	0.989584249383838	-0.0288311279671505
439229268	0.989512548020729	-0.0253413251223832
441029265	0.988518725113231	-0.0258610352649023
442829262	0.991893048660074	-0.0248577513047051
444629259	0.990202228979255	-0.0267425091627163
446429256	0.987501562719	-0.0233236364658804
448229253	0.986208803577978	-0.0226371035498168
450029250	0.985058232432264	-0.0229159642187399
451829247	0.983054564994609	-0.0225836754549945
453629244	0.979910371323097	-0.0214645151175018
455429241	0.980292610787355	-0.0185717131744439
457229238	0.975962064079227	-0.0209682399234242
459029235	0.976767825100939	-0.0202225982769998
460829232	0.971553000920154	-0.0190415442675076
462629229	0.970944000021924	-0.0184673342136146
464429226	0.966651724568344	-0.0184093012502475
466229223	0.964346216436877	-0.0181092927961296
468029220	0.964733533826591	-0.0185353791784588
469829217	0.962342454277637	-0.019820776365154
471629214	0.957680020146313	-0.0209923833403901
473429211	0.954874474592918	-0.0200598758950469
475229208	0.954161253461863	-0.0219240921429752
477029205	0.954578602447747	-0.0196137432968237
478829202	0.953013919671527	-0.0187088888410721
480629199	0.952728435620881	-0.0239840934106816
482429196	0.952673920497195	-0.0207377253227999
484229193	0.947837738248831	-0.0228277231792166
486029190	0.948999510637137	-0.0213229325347004
487829187	0.950740839492259	-0.0270819666583924
489629184	0.949861367960483	-0.0256745843466829
491429181	0.94987810805268	-0.0270339487475757
493229178	0.951444352702161	-0.0297601918310207
495029175	0.955170940132063	-0.0316134541227295
496829172	0.956217021735255	-0.0316004694025096
498629169	0.957160100076868	-0.0338520270478539
500429166	0.960771614890677	-0.0328734250649078
502229163	0.960197167709929	-0.033963926958284
504029160	0.965762129703954	-0.0341301589414015
505829157	0.967530170606445	-0.0349342318130667
507629154	0.970645114187392	-0.0330163385595742
509429151	0.970701696656462	-0.0354722517182784
511229148	0.97374688422044	-0.0365539421356964
513029145	0.977035950141562	-0.0362336432546423
514829142	0.979554603328859	-0.0369599478173837
516629139	0.983676381498286	-0.0365108275645989
518429136	0.985323266019015	-0.0368138055880341
520229133	0.987067398285896	-0.0356934315215686
522029130	0.989902285526726	-0.0381510227611834
523829127	0.992509233198596	-0.0350955082753976
525629124	0.995081293998847	-0.0327856131391858
527429121	0.994238945740762	-0.0347498284494236
529229118	0.993780223934937	-0.0336536824560304
531029115	0.993963050435241	-0.0340642528767938
532829112	0.997781135132721	-0.0339247165784659
534629109	0.994019632375773	-0.0280894635910219
536429106	0.995936878736497	-0.02871408640621
538229103	0.994488164278644	-0.0296784288549886
540029100	0.994403347557801	-0.0312476550875164
541829097	0.991841059825037	-0.0289868637450712
543629094	0.987676480980077	-0.0246178970825852
545429091	0.987517132773047	-0.0280653087437951
547229088	0.984929687454444	-0.0257902438375679
549029085	0.981541531572809	-0.0253555558693325
550829082	0.980466859295822	-0.025022038142937
552629079	0.975277467109698	-0.0266652001875955
554429076	0.970855113011832	-0.0243797532494085
556229073	0.970241024729052	-0.0232641770167103
558029070	0.966554238648784	-0.0268837049759649
559829067	0.961806423060457	-0.0278226273926655
561629064	0.961141959345119	-0.0260016242893724
563429061	0.955928784641886	-0.0233264953575655
565229058	0.95498116816225	-0.0255812038484853
567029055	0.952398624756037	-0.0281290324763254
568829052	0.948008028390678	-0.0249856737042343
570629049	0.947656315879099	-0.0295318433497302
572429046	0.946229706288822	-0.0280222603921382
574229043	0.945345039886156	-0.0304829542688971
576029040	0.94282627259341	-0.0341736330572416
577829037	0.943722349448868	-0.0350220606895796
579629034	0.942095982929229	-0.0360646257915754
581429031	0.941096216603367	-0.0343971663663903
583229028	0.942742982126493	-0.0373198600326818
585029025	0.942107096806786	-0.0391367582367094
586829022	0.945266294342873	-0.039884311115891
588629019	0.947793737051489	-0.0433914142585224
590429016	0.945943195723898	-0.0416127312542007
592229013	0.946990132504108	-0.0438089847939845
594029010	0.951836711412174	-0.0461810140516294
595829007	0.952563151256114	-0.0446964150155394
597629004	0.956773874243114	-0.0443856510506772
599429001	0.958171490370175	-0.0467781927444799
601228998	0.96433691210827	-0.0439719660400457
603028995	0.964539548258585	-0.047024005916982
604828992	0.967595118111556	-0.0501557809090098
606628989	0.972895407666864	-0.0481050339089152
608428986	0.975864767396095	-0.0463342166856583
610228983	0.979213786529797	-0.0452004480848797
612028980	0.980715238317202	-0.0485796146405659
613828977	0.986710898276702	-0.0441738083266223
615628974	0.98592674187468	-0.0465403930738691
617428971	0.990512579161801	-0.0442090279642109
619228968	0.990040256822738	-0.0416005298250795
621028965	0.995344350132219	-0.0424353361761781
622828962	0.996473316594548	-0.0426173945810856
624628959	0.997688861776984	-0.0396794450558441
626428956	0.996564798494221	-0.0395814258919289
628228953	0.997000624944201	-0.0412852507861494
630028950	0.99473138369674	-0.0363133500800299
631828947	0.997320065158418	-0.0368423255364746
633628944	0.994185279812221	-0.0350196636477835
635428941	0.994812761456646	-0.0367707823336232
637228938	0.991960817099984	-0.0327778951945741
639028935	0.989751884895043	-0.031953891907591
640828932	0.987434232183653	-0.0350024637355607
642628929	0.982449948836318	-0.0305925065190626
644428926	0.979410714776334	-0.0309237643061938
646228923	0.979586160247794	-0.0333158472583417
648028920	0.976831902692212	-0.0281506528558556
649828917	0.972511487086522	-0.0277871737439352
651628914	0.970774050722508	-0.0308575865500453
653428911	0.965109430870428	-0.0330402375916463
655228908	0.961373143001574	-0.0301832270380341
657028905	0.958743577092362	-0.0313132829432053
658828902	0.958925379419893	-0.031845516421426
660628899	0.95319154337163	-0.034059403771911
662428896	0.953351118505482	-0.0330666797120115
664228893	0.949357025167446	-0.0362631986986216
666028890	0.947511860464896	-0.038292936382972
667828887	0.945307494797955	-0.0371032933651637
669628884	0.9451933540258	-0.0385363421156245
671428881	0.942833620677235	-0.0404563733422816
673228878	0.940177170744115	-0.0422629978942595
675028875	0.941258474130588	-0.0471479081350005
676828872	0.942124510882959	-0.0459020964639711
678628869	0.942266793179336	-0.0462960065597229
680428866	0.943849227771291	-0.0480624445019552
682228863	0.944912673257441	-0.0500734250964965
684028860	0.944763149695425	-0.0495423609024152
685828857	0.94757799253044	-0.0527356530597918
687628854	0.947239801226998	-0.0507328244885452
689428851	0.949127180653665	-0.0511261427144053
691228848	0.955164709834651	-0.0513303425608372
693028845	0.957145383989237	-0.0564275521441259
694828842	0.957995022393839	-0.0552761720077029
696628839	0.964170142574655	-0.0528111007084848
698428836	0.965516014159255	-0.0536655661042253
700228833	0.968585578295596	-0.0542488587277725
702028830	0.973118053627139	-0.054056174632747
703828827	0.97461299553289	-0.0530677613498386
705628824	0.977513114998093	-0.0537290933643106
707428821	0.976963860213188	-0.0515108960910736
709228818	0.982139829988527	-0.0521654860737693
711028815	0.98151854773694	-0.0515272154426243
712828812	0.98696733535874	-0.0480556222887544
714628809	0.988438434138582	-0.0501247361162313
716428806	0.989869490434189	-0.0472449738935172
718228803	0.993434348840018	-0.0466843684700748
720028800	0.991108758630359	-0.0441021342899553
721828797	0.992261395293645	-0.044985383443837
