!Keysight Technologies N9917A: A.12.46
!Date: Friday, 22 December 2023 20:32:08
!TimeZone: (UTC-03:00) Buenos Aires!Model: N9917A
!Serial: MY56072049
!GPS Latitude: 
!GPS Longitude: 
!GPS TimeStamp: 0001-01-01 00:00:00Z
!GPS Seconds Since Last Read: 0
!CHECKSUM:1521196075
!Correction: S11(ON U)
!S1P File: Measurement: S11:
# Hz S RI R 50
30000	1.0006455270302	0.000376949281202472
18029970	0.946851499235042	0.0315792564209812
36029940	0.906621540094324	0.117532106573543
54029910	0.922367609493466	0.14118241469405
72029880	0.94475867922905	0.0416057211790225
90029850	0.99411570344742	0.00709175656955493
108029820	0.997741618006346	-0.0116403900308214
126029790	1.01133786176392	0.0168094487403064
144029760	1.0230865357755	0.0359487876938566
162029730	1.02168303220372	0.0294752533203901
180029700	1.00968232358162	-0.00215496217849175
198029670	0.998434602468316	-0.0228403862614532
216029640	0.997444632520891	-0.0252497562345317
234029610	1.00521676199614	-0.018490883684447
252029580	1.01210900010701	-0.0133007622783924
270029550	1.01122365011528	-0.0222468392351132
288029520	1.00038456818582	-0.0325584857602959
306029490	0.996090965806369	-0.0383133908210131
324029460	0.994601526337258	-0.0377980049294428
342029430	1.00023225246471	-0.0376849061553842
360029400	1.00293311616984	-0.0387822435061238
378029370	1.00033833950304	-0.042761066048747
396029340	0.995214903617962	-0.0482181611857593
414029310	0.993007977946739	-0.0519287902092834
432029280	0.992830844276343	-0.053979214633791
450029250	0.995951924596968	-0.0544790864243505
468029220	0.995851298138934	-0.0563707197026883
486029190	0.991761636116937	-0.0600535224715109
504029160	0.992846866585968	-0.063693556955647
522029130	0.991590479254036	-0.0638036987588594
540029100	0.99006085123133	-0.0671977285810167
558029070	0.991801368789823	-0.066709618622966
576029040	0.990729827222003	-0.0702980376762579
594029010	0.989066490711721	-0.072594032545472
612028980	0.991107084905382	-0.0739196943756775
630028950	0.988974493435353	-0.075407958943241
648028920	0.988012670144942	-0.077268640902902
666028890	0.987113113302241	-0.0817407036027349
684028860	0.988495487509405	-0.0810321598862417
702028830	0.991237819377394	-0.0805852665051385
720028800	0.991139162727595	-0.0817716164601835
738028770	0.985859322240377	-0.0846814503049884
756028740	0.982572993407438	-0.0871086633722809
774028710	0.983225776858475	-0.0906849749119527
792028680	0.987709771198051	-0.0908892103213577
810028650	0.988970798577801	-0.0881666387820354
828028620	0.986584073313848	-0.0882607167058587
846028590	0.984111847725049	-0.0920229334281314
864028560	0.981196258831699	-0.097781708283399
882028530	0.984491804868106	-0.100104302847846
900028500	0.989527950126938	-0.0969991609948418
918028470	0.988095700532748	-0.0939214516616082
936028440	0.983732483694872	-0.0971995529401774
954028410	0.980017745376941	-0.104103765374033
972028380	0.982134294139735	-0.111621871041135
990028350	0.987703538239926	-0.110429226325957
1008028320	0.988567255812687	-0.105511320609802
1026028290	0.98600718753332	-0.104136346207827
1044028260	0.979972980149729	-0.108642913790408
1062028230	0.977302069348293	-0.116718446884246
1080028200	0.982934573801938	-0.124534592826322
1098028170	0.986769152079016	-0.11980866685132
1116028140	0.986287098521597	-0.112389424255155
1134028110	0.981571907574837	-0.111809398675161
1152028080	0.976489729934581	-0.122897109867766
1170028050	0.976531246509863	-0.136306706787594
1188028020	0.982679785686718	-0.139124522487955
1206027990	0.987402273025939	-0.131493960913866
1224027960	0.981122055822277	-0.123784467457583
1242027930	0.975305164650102	-0.128616113560969
1260027900	0.969656057586086	-0.144207912713538
1278027870	0.971600059837605	-0.162135519328537
1296027840	0.979655796165227	-0.163237322861292
1314027810	0.980951886015066	-0.148125683717095
1332027780	0.978646694577445	-0.140865101531215
1350027750	0.96664184287122	-0.148461647820896
1368027720	0.953479817533059	-0.172588114268759
1386027690	0.949930869523896	-0.189952345784773
1404027660	0.96550848961787	-0.190374788785166
1422027630	0.976493964493987	-0.168127598986372
1440027600	0.971324352373258	-0.159271122841526
1458027570	0.944978397365534	-0.171598844330458
1476027540	0.913845921180523	-0.195361183617104
1494027510	0.910918667571628	-0.215191724192926
1512027480	0.943139821586378	-0.214654021310741
1530027450	0.972683981749433	-0.18991602081602
1548027420	0.95649855981023	-0.177425159766866
1566027390	0.907905369539362	-0.174803108620731
1584027360	0.862320532879267	-0.184846081772442
1602027330	0.875892735220113	-0.214660117798684
1620027300	0.932056517266391	-0.219992546791823
1638027270	0.966670096116752	-0.205518353900714
1656027240	0.935941020222411	-0.178674239567298
1674027210	0.885395466384445	-0.147939465293253
1692027180	0.856425987866682	-0.151484419551379
1710027150	0.885809397546698	-0.19171242426463
1728027120	0.94417494887327	-0.223120861413453
1746027090	0.956379656869365	-0.21442482546175
1764027060	0.931043079544325	-0.168515244773922
1782027030	0.90151817578634	-0.130658844640762
1800027000	0.89512241245851	-0.14036261875396
1818026970	0.923602728329688	-0.193771314220372
1836026940	0.951232249937725	-0.233771351088659
1854026910	0.947806924343309	-0.213243264911164
1872026880	0.93831590999687	-0.163728394587312
1890026850	0.93297142346159	-0.136064131432018
1908026820	0.934636119805131	-0.158362009147743
1926026790	0.94710964389075	-0.215913021524808
1944026760	0.949515483928931	-0.238432530788463
1962026730	0.945282920616266	-0.205092196189692
1980026700	0.95174320155049	-0.162907367984766
1998026670	0.952726250547719	-0.149882619564828
2016026640	0.953571584653627	-0.181725084516951
2034026610	0.950190083333196	-0.229028760241605
2052026580	0.943641032857394	-0.234630127738251
2070026550	0.951640884217062	-0.199823374296817
2088026520	0.961448182044411	-0.167240064937728
2106026490	0.963066771111099	-0.164699288938585
2124026460	0.957726496886015	-0.201081323966198
2142026430	0.945981851178409	-0.236672811577764
2160026400	0.948836344196965	-0.229996648026418
2178026370	0.957888946336569	-0.195141351988199
2196026340	0.967431450869869	-0.170328643468827
2214026310	0.967002423772498	-0.180700954044199
2232026280	0.957512037946486	-0.214938297176547
2250026250	0.948544542054887	-0.237915820485298
2268026220	0.951477392505321	-0.22184238200116
2286026190	0.962047732271717	-0.190866057355679
2304026160	0.967180965722445	-0.179397342923653
2322026130	0.968318854668196	-0.193978643643883
2340026100	0.956482588797273	-0.226073501893186
2358026070	0.947311158468164	-0.238153395030285
2376026040	0.950819919902298	-0.218530438322122
2394026010	0.959219873885931	-0.195607025002204
2412025980	0.96763360634934	-0.193183971369563
2430025950	0.964819188933231	-0.213326774881642
2448025920	0.951498408678241	-0.24045560781303
2466025890	0.942769685329916	-0.240980219167527
2484025860	0.947969418873278	-0.222903467522549
2502025830	0.961558337438684	-0.20855112651624
2520025800	0.965862791407594	-0.211800888695768
2538025770	0.957738404589095	-0.231448497604981
2556025740	0.944615829288941	-0.25028655094555
2574025710	0.933795053135497	-0.249531944276842
2592025680	0.941006269357009	-0.236065155984693
2610025650	0.954343103446947	-0.229804789743041
2628025620	0.961550651098743	-0.233854627170214
2646025590	0.94665042817629	-0.253272788225175
2664025560	0.927741659348973	-0.268179393248819
2682025530	0.921414232960878	-0.266482873551008
2700025500	0.935602343393578	-0.260100207024146
2718025470	0.950074110074673	-0.251099040034123
2736025440	0.948959244978846	-0.257178647751101
2754025410	0.926281015625615	-0.273237462536851
2772025380	0.911144709839737	-0.290326747921697
2790025350	0.91379422803103	-0.291010139573373
2808025320	0.930683185785167	-0.280626417520276
2826025290	0.934052466813858	-0.28107824158417
2844025260	0.924645636390404	-0.289064529721978
2862025230	0.907116473782903	-0.307473067334435
2880025200	0.896874323599671	-0.318253335032538
2898025170	0.902643851479075	-0.318415371589716
2916025140	0.914110930280012	-0.311737193906204
2934025110	0.91428645496007	-0.313731375517173
2952025080	0.903585791451165	-0.322503331719457
2970025050	0.891097962657682	-0.3378059972215
2988025020	0.889056262855683	-0.342236242867601
3006024990	0.890334459888327	-0.339544366935649
3024024960	0.89421333642224	-0.337874296204241
3042024930	0.89200449469878	-0.342397354488415
3060024900	0.883018469202025	-0.352930811023767
3078024870	0.874727506268134	-0.360314079645579
3096024840	0.871137264836913	-0.361724994850484
3114024810	0.874600497979582	-0.355388405958393
3132024780	0.879391235548759	-0.36098325023115
3150024750	0.881380674801836	-0.366110104970886
3168024720	0.876576884604085	-0.373087311828283
3186024690	0.866694115041545	-0.371130143696827
3204024660	0.860843675155414	-0.36797878135034
3222024630	0.864643860972997	-0.36839590387537
3240024600	0.871348698536795	-0.375768230479738
3258024570	0.875894733089524	-0.37851144586212
3276024540	0.871669759998029	-0.369398553325748
3294024510	0.86285280120319	-0.3650993352468
3312024480	0.861696566377967	-0.366676505597654
3330024450	0.866863324369367	-0.374751123549244
3348024420	0.879927005507987	-0.375727803410643
3366024390	0.87785194194672	-0.370871513982171
3384024360	0.872596766422747	-0.358022866695563
3402024330	0.86936080296316	-0.356592193131324
3420024300	0.870438433945904	-0.358867413340365
3438024270	0.879406860947668	-0.365800499710908
3456024240	0.884585243867451	-0.365419376368069
3474024210	0.881052807676183	-0.349829832118727
3492024180	0.87805023829575	-0.340177030031248
3510024150	0.877440462969905	-0.341867646058773
3528024120	0.883974622185281	-0.348956355575418
3546024090	0.887936087918658	-0.353519937607652
3564024060	0.89300364093393	-0.343861783002419
3582024030	0.890684932320564	-0.330599244179098
3600024000	0.892487325134573	-0.322204904378639
3618023970	0.890040928777366	-0.32469161156883
3636023940	0.891222264713615	-0.331885501067606
3654023910	0.894110926433628	-0.336828969295558
3672023880	0.897955528424771	-0.32587744271465
3690023850	0.902548664262656	-0.313981007021711
3708023820	0.903005787438845	-0.306529078482689
3726023790	0.898901288005136	-0.311065604398734
3744023760	0.897077096501124	-0.319840425206567
3762023730	0.898371239222911	-0.324308273306868
3780023700	0.905642781501538	-0.316279535942098
3798023670	0.904214326588604	-0.303107743910451
3816023640	0.902950800385306	-0.299253370120005
3834023610	0.899460452004983	-0.304174745446964
3852023580	0.89818256896014	-0.316602800233077
3870023550	0.901750279303706	-0.316545099917578
3888023520	0.908106861880971	-0.312030091802185
3906023490	0.906395693288647	-0.301186889523174
3924023460	0.899177923642473	-0.296278240704045
3942023430	0.894631122874156	-0.305263533726201
3960023400	0.892561869125705	-0.318966506914829
3978023370	0.896115316040464	-0.326418741876286
3996023340	0.899012101720347	-0.321336368518502
4014023310	0.894571005515657	-0.309837034077203
4032023280	0.892867251434875	-0.310249431775357
4050023250	0.886991533170793	-0.318935473192091
4068023220	0.888105048567539	-0.336594532166123
4086023190	0.884977528659767	-0.345064865540604
4104023160	0.883568945283626	-0.337461322887032
4122023130	0.883346329003524	-0.325477401163918
4140023100	0.880056172616458	-0.324134492516262
4158023070	0.873144994180663	-0.340073651989221
4176023040	0.863504180028216	-0.365331637066715
4194023010	0.858970965922012	-0.375898150730024
4212022980	0.86313924412359	-0.365116145205192
4230022950	0.867953713101107	-0.354288572416633
4248022920	0.860205184198468	-0.356547493180001
4266022890	0.843225894880342	-0.379726914619955
4284022860	0.825264000369212	-0.409298358895872
4302022830	0.827319761964242	-0.417492016813522
4320022800	0.836224843310867	-0.406331854864824
4338022770	0.838431178747206	-0.390341048706088
4356022740	0.825034933282131	-0.40211171275216
4374022710	0.795658661610461	-0.435422976846862
4392022680	0.780545128084072	-0.461421039390259
4410022650	0.796233484376392	-0.462466846454595
4428022620	0.808560969658103	-0.442024396012078
4446022590	0.799229249317115	-0.436259195740234
4464022560	0.772573126644388	-0.45391589077914
4482022530	0.742639921575883	-0.49111024288658
4500022500	0.742532409704529	-0.510910421502866
4518022470	0.763177038824	-0.504388443146566
4536022440	0.766983594845271	-0.485988524091018
4554022410	0.748590486593831	-0.48508092241696
4572022380	0.722130423700051	-0.505680149781067
4590022350	0.708850981640672	-0.53726301354204
4608022320	0.722188040116311	-0.546433846767135
4626022290	0.735321170245845	-0.529032215221594
4644022260	0.734172016813597	-0.513465088864281
4662022230	0.719563161731169	-0.515478977918514
4680022200	0.708087561878373	-0.533742338886124
4698022170	0.70907657133612	-0.554803223868036
4716022140	0.716487036740239	-0.553184068317174
4734022110	0.728485694094824	-0.533198931648624
4752022080	0.73807102608778	-0.51248564677321
4770022050	0.739894007097621	-0.51250836239884
4788022020	0.735358776505694	-0.524144153604381
4806021990	0.727127656640323	-0.537674898417126
4824021960	0.733688567622711	-0.530458020391144
4842021930	0.758197955597574	-0.504741138973395
4860021900	0.778847702027343	-0.483957322478066
4878021870	0.778188595848884	-0.481101343167733
4896021840	0.765192554285655	-0.492820580533884
4914021810	0.757449957983397	-0.504851305509002
4932021780	0.7771654204354	-0.49049612489305
4950021750	0.80460090948937	-0.459020525213746
4968021720	0.818099833880983	-0.439312766700992
4986021690	0.808837064671268	-0.438455986314435
5004021660	0.78886522252429	-0.457042809048551
5022021630	0.798191548764557	-0.460961470631731
5040021600	0.82689707874517	-0.43402786855114
5058021570	0.845440244688245	-0.401631590140028
5076021540	0.842899112181098	-0.392936191984173
5094021510	0.825651143998816	-0.407122974093667
5112021480	0.816984514816313	-0.418684316561067
5130021450	0.83407725496553	-0.409846282110662
5148021420	0.859085805912453	-0.383396098162987
5166021390	0.861760076595717	-0.364198220663139
5184021360	0.851718599502462	-0.364094663532079
5202021330	0.840990879424569	-0.38091450916938
5220021300	0.845994045726846	-0.388046583190761
5238021270	0.859768538715623	-0.3779949734903
5256021240	0.86884028203553	-0.356500283026466
5274021210	0.863967421702361	-0.347440204519786
5292021180	0.855612613210122	-0.354040609987538
5310021150	0.851307422156394	-0.368699757396205
5328021120	0.866134899356474	-0.371402984585581
5346021090	0.864003669662822	-0.359168966848728
5364021060	0.862425839024303	-0.347713339397213
5382021030	0.855793178237483	-0.34787453959853
5400021000	0.853894939682243	-0.356614690566815
5418020970	0.852913730688045	-0.367726134685665
5436020940	0.851947848720681	-0.368814311416126
5454020910	0.847966616066065	-0.363566874520689
5472020880	0.846481040904536	-0.359219730805789
5490020850	0.849123284306039	-0.358127197752675
5508020820	0.849568567482787	-0.362662809920965
5526020790	0.837740076664211	-0.37722416059572
5544020760	0.825777054400847	-0.389402663957977
5562020730	0.819865173427057	-0.392049320804625
5580020700	0.825358186680334	-0.388439317452605
5598020670	0.836066289999925	-0.382030365567752
5616020640	0.82728156769568	-0.386174085835502
5634020610	0.802939245874285	-0.405589088592445
5652020580	0.780625918518581	-0.425726291017404
5670020550	0.781891851534323	-0.434644771745061
5688020520	0.798531799664177	-0.426686701360746
5706020490	0.794657130304805	-0.420903314870889
5724020460	0.770319133678987	-0.437685521343538
5742020430	0.732143459447844	-0.466723401884098
5760020400	0.724047819411399	-0.490515172787132
5778020370	0.738195083152539	-0.487863405167034
5796020340	0.744227664596856	-0.474809180189516
5814020310	0.723179802251802	-0.479686685079548
5832020280	0.680930828337915	-0.506624403243412
5850020250	0.656205265345258	-0.539420652401109
5868020220	0.666345061302407	-0.548349109752132
5886020190	0.681050919044616	-0.539814375472429
5904020160	0.668282422212342	-0.53171368000312
5922020130	0.627715255974062	-0.547804203473624
5940020100	0.589877597141344	-0.579539489499293
5958020070	0.593310815950913	-0.605340472276493
5976020040	0.60646474616288	-0.60224103238254
5994020010	0.599548484478516	-0.589541562403948
6012019980	0.567546264466087	-0.594022843623093
6030019950	0.544006803841823	-0.621013532775789
6048019920	0.54341342984673	-0.648094751284689
6066019890	0.551574498728439	-0.644026490733962
6084019860	0.549067290495245	-0.631569991939709
6102019830	0.530493452499502	-0.630326916004622
6120019800	0.520584180161788	-0.646884529091302
6138019770	0.536866273314504	-0.665621564947828
6156019740	0.546346585652838	-0.657670698411898
6174019710	0.542009556342148	-0.646478070690735
6192019680	0.538961266386332	-0.645048366233964
6210019650	0.558906924088378	-0.65041563045126
6228019620	0.58872372845754	-0.646911324329626
6246019590	0.59745067509061	-0.634796643899725
6264019560	0.587083736349039	-0.62714905727436
6282019530	0.580413451539276	-0.626798259992804
6300019500	0.60999896497347	-0.632703762576437
6318019470	0.651879106487668	-0.616592121688752
6336019440	0.665850348152466	-0.591252480673899
6354019410	0.653311287449036	-0.581404017708768
6372019380	0.644397663461551	-0.587115039240507
6390019350	0.6737737656333	-0.58342228305294
6408019320	0.714072084197833	-0.558385295422355
6426019290	0.734361955753717	-0.528384235244103
6444019260	0.720058842705674	-0.524342989581387
6462019230	0.704296758934352	-0.535055559821436
6480019200	0.71911001046733	-0.536168371520717
6498019170	0.756338921990346	-0.511908948198994
6516019140	0.783056468976033	-0.47965705074613
6534019110	0.780541012379566	-0.463592706320829
6552019080	0.761186571075339	-0.472981852154373
6570019050	0.759082964804894	-0.481664121331731
6588019020	0.781114253431342	-0.477280474091122
6606018990	0.802433222410563	-0.448832332967883
6624018960	0.811392875096052	-0.427733123775383
6642018930	0.798654482602379	-0.428934550491698
6660018900	0.790935120756688	-0.439132059606759
6678018870	0.799309070062177	-0.444171326524471
6696018840	0.814036605499682	-0.426604300967681
6714018810	0.820178225675063	-0.407681483900662
6732018780	0.811450795592573	-0.403709341641452
6750018750	0.810219215160784	-0.409871336950032
6768018720	0.81356698583554	-0.417586136161384
6786018690	0.81711007554312	-0.40775747260077
6804018660	0.816427575547688	-0.40060033754012
6822018630	0.80988654703782	-0.397226216197713
6840018600	0.807466589750633	-0.40454279134728
6858018570	0.811936944130809	-0.406333645190019
6876018540	0.813919973807797	-0.402320213914451
6894018510	0.808041867066804	-0.398634258032821
6912018480	0.795909726463757	-0.402344134369935
6930018450	0.795710858859376	-0.409658193945927
6948018420	0.807058173238686	-0.410735368571016
6966018390	0.809807919354441	-0.40309773447472
6984018360	0.795086273500226	-0.404801903335654
7002018330	0.773799709904616	-0.412031115963589
7020018300	0.760205631692908	-0.431937005216694
7038018270	0.768813110164936	-0.439746856308828
7056018240	0.777652277270603	-0.434372258346498
7074018210	0.769522970689053	-0.430000998420258
7092018180	0.740397277571458	-0.436755350656846
7110018150	0.714796004071878	-0.463391979032608
7128018120	0.711569811804827	-0.483743038565213
7146018090	0.726328977430999	-0.480320517615601
7164018060	0.727883899386374	-0.468577313214612
7182018030	0.701008707032502	-0.471314966461969
7200018000	0.662165436697132	-0.497001152589151
7218017970	0.642643460072975	-0.522889894936568
7236017940	0.649672786829322	-0.531986507981286
