!Keysight Technologies N9917A: A.12.46
!Date: Friday, 22 December 2023 20:28:51
!TimeZone: (UTC-03:00) Buenos Aires!Model: N9917A
!Serial: MY56072049
!GPS Latitude: 
!GPS Longitude: 
!GPS TimeStamp: 0001-01-01 00:00:00Z
!GPS Seconds Since Last Read: 0
!CHECKSUM:0158743757
!Correction: S11(Rdy)
!S1P File: Measurement: S11:
# Hz S RI R 50
30000	0.997537287262466	-0.00170494482848985
18029970	0.641833940258316	-0.613663490080118
36029940	-0.00359300160912726	-0.874339317792985
54029910	-0.783495537980726	-0.389595437934595
72029880	-0.528246191722275	0.579568849725419
90029850	0.644003201070569	0.697458460310564
108029820	0.919874383230923	-0.336205215432
126029790	0.221084098631179	-0.949673899739053
144029760	-0.658779306282909	-0.685491457719733
162029730	-0.881355455862977	0.272060075329708
180029700	-0.0485657770960639	0.929071635015244
198029670	0.876929245302122	0.396173158979673
216029640	0.760545000256761	-0.607875798648987
234029610	-0.13994427070104	-0.941823930623881
252029580	-0.866711088363184	-0.323051384541171
270029550	-0.652785143965937	0.643887609649979
288029520	0.342298280592944	0.874877467723111
306029490	0.959796627156972	0.0666748856915193
324029460	0.498988640596741	-0.811156406222202
342029430	-0.469424929910906	-0.794242063939692
360029400	-0.904242350379945	0.069047126911579
378029370	-0.325161118644684	0.859036569859033
396029340	0.648015184049622	0.685048706450473
414029310	0.907834300978599	-0.268696579768556
432029280	0.167883066409658	-0.909269222198244
450029250	-0.727828203783623	-0.537617351960947
468029220	-0.797614333113486	0.428575382720284
486029190	0.03301362750743	0.924493542546063
504029160	0.846150009581797	0.395915725061712
522029130	0.728282296373315	-0.567182030167073
540029100	-0.186279617010656	-0.887073634816774
558029070	-0.875221341617144	-0.208225572800038
576029040	-0.573154978704719	0.701807232692506
594029010	0.367322542554914	0.837656488659433
612028980	0.912230235311848	0.0627203298526177
630028950	0.466380608949068	-0.780137824863809
648028920	-0.495112812018323	-0.752756510444376
666028890	-0.886477495894118	0.121560863414476
684028860	-0.277948091909926	0.848767303118129
702028830	0.631704386810173	0.639069954168112
720028800	0.867560282029927	-0.264865921519757
738028770	0.162526096099315	-0.893272324349215
756028740	-0.720899905473474	-0.532358895520471
774028710	-0.775589692086939	0.414768336002751
792028680	0.0325772951374827	0.875930714698603
810028650	0.809111846351777	0.384494758067729
828028620	0.737243579210472	-0.53672692443737
846028590	-0.131801323740051	-0.895498751488288
864028560	-0.836762408665834	-0.261128760507167
882028530	-0.577913386336757	0.636149305866869
900028500	0.319085139030656	0.815250933681282
918028470	0.896978212548624	0.115025572100681
936028440	0.546278708538461	-0.73400873815963
954028410	-0.3922101661308	-0.795954925662254
972028380	-0.853396562390994	0.0230221672155272
990028350	-0.337624877886414	0.785094423780258
1008028320	0.558625153296593	0.688087612689198
1026028290	0.897947139862237	-0.143326497521964
1044028260	0.305268187193269	-0.843375557173071
1062028230	-0.60089452129921	-0.614519088994624
1080028200	-0.787346524156976	0.296762871326593
1098028170	-0.0769157523649493	0.860075883036893
1116028140	0.739308130936308	0.504776918439509
1134028110	0.81301717825864	-0.388735574157722
1152028080	0.0291121825126125	-0.869302514096793
1170028050	-0.753908861276477	-0.367868190442649
1188028020	-0.648423792142229	0.537051438790306
1206027990	0.176060707513403	0.853153264539266
1224027960	0.844029078254363	0.281359651849964
1242027930	0.6425920120121	-0.59644560684917
1260027900	-0.262235295210655	-0.799701923836035
1278027870	-0.81801261143986	-0.0732044180515244
1296027840	-0.435219560269732	0.714462016869858
1314027810	0.417955161944989	0.755681947777836
1332027780	0.873495335622342	0.0132390402915435
1350027750	0.385176975025431	-0.756306787174853
1368027720	-0.523513715105976	-0.611847756172697
1386027690	-0.754296467218034	0.227100111391393
1404027660	-0.162727209104619	0.793626762445036
1422027630	0.627683144767273	0.571309992619781
1440027600	0.809161274360934	-0.283317673175567
1458027570	0.056617280740089	-0.79500917331579
1476027540	-0.649142860685688	-0.306018532561997
1494027510	-0.539459173415617	0.451631680619381
1512027480	0.128342826890844	0.752964013886518
1530027450	0.784816885010524	0.308507528260977
1548027420	0.612005634735262	-0.546073991284273
1566027390	-0.204037422391281	-0.626084450948835
1584027360	-0.530802874472234	-0.04324312888758
1602027330	-0.275889853573132	0.488403849279988
1620027300	0.3583774277846	0.62302957717517
1638027270	0.850810122571701	-0.0011530617572369
1656027240	0.384301801089992	-0.6414554844323
1674027210	-0.215334373127045	-0.507670617536588
1692027180	-0.438598878909352	-0.0443922964408393
1710027150	-0.200025117704594	0.483776035438352
1728027120	0.566983920587997	0.504935640016085
1746027090	0.787771363583439	-0.316403982381181
1764027060	0.203595783034338	-0.729161532173691
1782027030	-0.37019551144118	-0.522019189062713
1800027000	-0.577017564279756	0.0850829579686189
1818026970	-0.048523553467464	0.669298070525471
1836026940	0.769345117016507	0.272936809095217
1854026910	0.623145598078412	-0.553722249263637
1872026880	-0.0535637900840029	-0.769627870688956
1890026850	-0.603110900917077	-0.368368648355691
1908026820	-0.567774416967764	0.39652085429344
1926026790	0.27026335544895	0.711204336867545
1944026760	0.823881130177772	-0.0186642307354167
1962026730	0.403860106025781	-0.709494045890427
1980026700	-0.320522820686725	-0.711843455471094
1998026670	-0.741270201287513	-0.106090720924092
2016026640	-0.382527516076727	0.645287302478157
2034026610	0.535040776273898	0.57993065399491
2052026580	0.764360859380987	-0.280602204801854
2070026550	0.162639759559287	-0.794147408278613
2088026520	-0.544637100041087	-0.576961958644584
2106026490	-0.757046243011069	0.169587140707004
2124026460	-0.12385980224387	0.762209037028534
2142026430	0.701548689574567	0.367956546622652
2160026400	0.643236226846181	-0.493765587492844
2178026370	-0.0726951941082484	-0.81364174197437
2196026340	-0.7021498994363	-0.392108186236908
2214026310	-0.667753397869562	0.413363986905696
2232026280	0.136237381957751	0.765149786640279
2250026250	0.783767996789303	0.137592192017667
2268026220	0.491722340623831	-0.655710563686581
2286026190	-0.282545151460564	-0.771979189709701
2304026160	-0.785161331767083	-0.182646661441883
2322026130	-0.509872879562295	0.595647293690443
2340026100	0.371593603129641	0.689676548003425
2358026070	0.80216129432057	-0.0890512737444853
2376026040	0.309502335746324	-0.763851316324386
2394026010	-0.470270654407929	-0.668521590355699
2412025980	-0.797731611783665	0.048167844730721
2430025950	-0.300171382070627	0.727221200657627
2448025920	0.573152594870169	0.552795111967425
2466025890	0.755015557584396	-0.309133566227286
2484025860	0.0977212558228869	-0.81264651919133
2502025830	-0.629639679761757	-0.505291626303035
2520025800	-0.741914577330367	0.290390352449267
2538025770	-0.0552364617011404	0.793749438079991
2556025740	0.719589290381568	0.362604973712627
2574025710	0.636802949125842	-0.501093323329219
2592025680	-0.127626947841906	-0.794997924512509
2610025650	-0.745427240537084	-0.291705876532829
2628025620	-0.612643762148406	0.515419041128936
2646025590	0.20670520965006	0.777138451318406
2664025560	0.791005059013061	0.118201066781232
2682025530	0.443708525358454	-0.658458496623664
2700025500	-0.366868640938441	-0.706558718146721
2718025470	-0.802190267064404	-0.0295642386027547
2736025440	-0.407223556969652	0.695541204947125
2754025410	0.452837653303158	0.657816582399423
2772025380	0.772147147234715	-0.148239650039356
2790025350	0.197129537165928	-0.76035017159745
2808025320	-0.584791182383854	-0.540068544959005
2826025290	-0.762951093645179	0.253008340660706
2844025260	-0.122252548297842	0.788851408475153
2862025230	0.653712975911351	0.43078869605219
2880025200	0.651480431272032	-0.422589956024132
2898025170	-0.100422530106658	-0.779892631303553
2916025140	-0.745231601546316	-0.281704652482023
2934025110	-0.596393868136463	0.522905412416327
2952025080	0.20604892738932	0.751085433169977
2970025050	0.761973827850252	0.119464119659209
2988025020	0.431501248933879	-0.646925477215347
3006024990	-0.388570555971387	-0.68398425712416
3024024960	-0.782253961541462	0.0265886641779063
3042024930	-0.32105794320462	0.703537084668864
3060024900	0.497056301653578	0.584643818013233
3078024870	0.743457033235927	-0.208784919837086
3096024840	0.139035066441671	-0.765290365363447
3114024810	-0.614373246400037	-0.468989648820961
3132024780	-0.690229618082808	0.332656040007829
3150024750	-0.000258073556435684	0.76531392457067
3168024720	0.697421277266663	0.330116559128358
3186024690	0.608008125363549	-0.48220432364143
3204024660	-0.155492796062536	-0.751326408139281
3222024630	-0.732457528700394	-0.192600066539456
3240024600	-0.494330807743351	0.577287855701478
3258024570	0.30632307087652	0.707699931217065
3276024540	0.775249356563349	0.0468471351540881
3294024510	0.392766598977873	-0.658564309828392
3312024480	-0.402677609257225	-0.635405481549472
3330024450	-0.74555523081251	0.0858562958605623
3348024420	-0.249358231801026	0.724062323636517
3366024390	0.540488090043765	0.557398396118161
3384024360	0.739461404836809	-0.21335216306783
3402024330	0.15281386990199	-0.739010380529556
3420024300	-0.58548228790187	-0.464452227199637
3438024270	-0.68069785712441	0.3316470721874
3456024240	-0.00235405075822948	0.769701479723063
3474024210	0.683392009995994	0.35976539369793
3492024180	0.635035221969242	-0.420946564284512
3510024150	-0.0736729689103469	-0.746786389338278
3528024120	-0.704222856068524	-0.265149679770751
3546024090	-0.552984823183858	0.525214696890496
3564024060	0.222056411241232	0.736456245522695
3582024030	0.749944044152153	0.154652954181119
3600024000	0.495800861055627	-0.573476088552028
3618023970	-0.269860794393965	-0.703877530038198
3636023940	-0.752676192989214	-0.0709747175852734
3654023910	-0.391435873462482	0.651820553884803
3672023880	0.404145267972842	0.646783705072631
3690023850	0.763139318271368	-0.0427193181290521
3708023820	0.340027935915166	-0.684218522549129
3726023790	-0.438053360098615	-0.619269437849275
3744023760	-0.741891051885845	0.117462291495353
3762023730	-0.21618037661845	0.719155229626246
3780023700	0.548487080542695	0.522434632198466
3798023670	0.731630634111049	-0.227688376946013
3816023640	0.164876984403494	-0.747252456360034
3834023610	-0.572512376062669	-0.489419449116938
3852023580	-0.68216714707023	0.292247470036157
3870023550	-0.0320899989791104	0.744546520657201
3888023520	0.658185388534032	0.381225919814949
3906023490	0.660248377575012	-0.391351180865065
3924023460	-0.0128016947221511	-0.757001210579383
3942023430	-0.65808323502321	-0.333265105929185
3960023400	-0.578516443928012	0.444310684177224
3978023370	0.158270029067831	0.72572523866139
3996023340	0.731551732733778	0.193329964094568
4014023310	0.524634022375668	-0.544429549642308
4032023280	-0.211608867937759	-0.710964782718996
4050023250	-0.711368505409195	-0.136731117684179
4068023220	-0.425074090775418	0.588302521002533
4086023190	0.361367813333969	0.64407806314368
4104023160	0.746400707237217	-0.0296601706953744
4122023130	0.337605826773849	-0.658776828963038
4140023100	-0.399316829193261	-0.609057141178319
4158023070	-0.711372744190607	0.0809594291826387
4176023040	-0.211547684749554	0.682610367769566
4194023010	0.544984218029351	0.472848920757869
4212022980	0.676785186970234	-0.270492395421467
4230022950	0.102270879172015	-0.71779272482213
4248022920	-0.569960785821728	-0.428255326745055
4266022890	-0.617422346460164	0.32974672795674
4284022860	0.0735940573748916	0.692385224143738
4302022830	0.669171259050603	0.216642247009914
4320022800	0.514820936796246	-0.496012206853772
4338022770	-0.174503917347428	-0.69134891649241
4356022740	-0.677780229237384	-0.156455049845869
4374022710	-0.393506593643461	0.551108670860332
4392022680	0.371078271244676	0.570367160015449
4410022650	0.692859695329605	-0.0915943776474984
4428022620	0.26577424360948	-0.659267222660221
4446022590	-0.442308865673094	-0.541168571752643
4464022560	-0.651826748571606	0.169422447557448
4482022530	-0.076019254979007	0.658326468345822
4500022500	0.592065307600714	0.336132495646986
4518022470	0.588504264352358	-0.384304357871549
4536022440	-0.0492872103055446	-0.701846322850962
4554022410	-0.628106241460958	-0.265273299975725
4572022380	-0.480414353205828	0.458140966436464
4590022350	0.243309951172449	0.625056981454322
4608022320	0.692853012388669	0.0469878554283873
4626022290	0.375744707983935	-0.597624166232873
4644022260	-0.341592692933923	-0.604550406753933
4662022230	-0.675297968164406	0.0376709249212306
4680022200	-0.240449187201529	0.628918138951345
4698022170	0.484909862963455	0.485705245335562
4716022140	0.663079557810875	-0.22852432184473
4734022110	0.112641513008527	-0.695173486044773
4752022080	-0.549138466253144	-0.427958618613839
4770022050	-0.626607997803306	0.283162902166705
4788022020	-0.0135541101116197	0.686682491909302
4806021990	0.627486615267359	0.298802833989182
4824021960	0.549944985325268	-0.43795175555511
4842021930	-0.119427097571899	-0.696421475438263
4860021900	-0.662205236587475	-0.246150146625409
4878021870	-0.529300937246391	0.459016294428494
4896021840	0.187171574221605	0.668699704265239
4914021810	0.6885185117763	0.0985540035255731
4932021780	0.403894068574469	-0.579577897849917
4950021750	-0.303168352994538	-0.650289097745409
4968021720	-0.714506163546528	-0.0782361086368167
4986021690	-0.399368009682216	0.582167000846515
5004021660	0.359381310445943	0.591616695204298
5022021630	0.691897436044634	-0.0844122805419601
5040021600	0.266946118888841	-0.668216774482834
5058021570	-0.431386697007341	-0.589457708311562
5076021540	-0.716595814268225	0.0661816769435843
5094021510	-0.254236001800168	0.64913713768199
5112021480	0.48789319638516	0.487041799428348
5130021450	0.669191530933635	-0.228932081506667
5148021420	0.149804506348945	-0.712089489635318
5166021390	-0.524595797043016	-0.503288656069045
5184021360	-0.675876597518877	0.201253657575144
5202021330	-0.103864502695723	0.678121371038439
5220021300	0.574138252636017	0.379989603695295
5238021270	0.626054108824657	-0.341550827810154
5256021240	0.0261818226357849	-0.721881596111974
5274021210	-0.597326791803809	-0.384259321398541
5292021180	-0.599231836139793	0.337759213918221
5310021150	0.0454202278275053	0.680063706873568
5328021120	0.642141503288338	0.265697444462764
5346021090	0.550879820786372	-0.443245213226382
5364021060	-0.112642238640282	-0.694688403848998
5382021030	-0.648029093273644	-0.230448434881459
5400021000	-0.491769552935177	0.459819409478953
5418020970	0.194893176317905	0.651983313787648
5436020940	0.67625453282034	0.12222500840818
5454020910	0.419756614440353	-0.542529731484781
5472020880	-0.276831656589805	-0.617584602317984
5490020850	-0.667406019723583	-0.05308113419025
5508020820	-0.36117531362305	0.563263743951671
5526020790	0.34270501410024	0.5720121063191
5544020760	0.656361536235905	-0.0670531165601634
5562020730	0.218225855267729	-0.617215072537298
5580020700	-0.447828496035815	-0.479507336863722
5598020670	-0.641191622527927	0.151684765848014
5616020640	-0.171078714604603	0.630802372640275
5634020610	0.485567519828846	0.408785336856925
5652020580	0.55647459214138	-0.284677875606969
5670020550	-0.0243103637299717	-0.630466990865437
5688020520	-0.574813658238961	-0.286732165570272
5706020490	-0.525133389477756	0.357902900254388
5724020460	0.0946153314816758	0.603677859949019
5742020430	0.581007444149951	0.126053170079689
5760020400	0.348110711608777	-0.500276401417732
5778020370	-0.288736571566526	-0.55189978039173
5796020340	-0.623004380102984	-0.0177744379065241
5814020310	-0.27780058823587	0.530811753026231
5832020280	0.379275430337705	0.437598090574335
5850020250	0.556206234985792	-0.197088635534446
5868020220	0.0708048047475221	-0.610620337901149
5886020190	-0.502449866647076	-0.361579027882237
5904020160	-0.530899611308765	0.275022816563789
5922020130	0.0511898433042576	0.574338937596088
5940020100	0.562154929625004	0.164779116968538
5958020070	0.405305615834545	-0.458123859886031
5976020040	-0.214995273090416	-0.581847381648925
5994020010	-0.602430329361689	-0.0710892269141346
6012019980	-0.301192415161946	0.506551863009914
6030019950	0.355323787106375	0.482408733430788
6048019920	0.607515614444156	-0.115280968440691
6066019890	0.180242014353463	-0.602162802180518
6084019860	-0.446237905255258	-0.427121996073587
6102019830	-0.569550447531353	0.215086553735388
6120019800	-0.0450459177969831	0.616812424149397
6138019770	0.544079825695358	0.323158260447711
6156019740	0.541433333808798	-0.337158840229135
6174019710	-0.0559692113031759	-0.629626099679248
6192019680	-0.583861181189499	-0.228116422655304
6210019650	-0.474043315597674	0.423620494750916
6228019620	0.150587563922312	0.631769320386325
6246019590	0.629400844003508	0.164549924577922
6264019560	0.418630168127989	-0.48424073897629
6282019530	-0.256146760147682	-0.584423492930738
6300019500	-0.648427555544547	-0.042803702716942
6318019470	-0.36562806192206	0.554629878017329
6336019440	0.303619972567273	0.592300821896192
6354019410	0.649275244005433	-0.000279106096298702
6372019380	0.2714673401813	-0.582643027128459
6390019350	-0.403991438943296	-0.518541466211927
6408019320	-0.668099741868454	0.0889998486401334
6426019290	-0.270223977895766	0.619032673528991
6444019260	0.407556803805214	0.516935717060738
6462019230	0.627459426562719	-0.151510152982594
6480019200	0.135705499609775	-0.639665308236576
6498019170	-0.504949339299797	-0.449824636633242
6516019140	-0.655645714768682	0.190907838568671
6534019110	-0.165615095125442	0.648050832741209
6552019080	0.490957819245772	0.424847223345677
6570019050	0.590186765263551	-0.267756851094536
6588019020	0.0285969491330648	-0.665000997581595
6606018990	-0.568023469472951	-0.370873789110136
6624018960	-0.605764950180344	0.290421995845729
6642018930	-0.0336871657016726	0.651802847241352
6660018900	0.565737408328524	0.308274240785269
6678018870	0.537475893200977	-0.378860023822181
6696018840	-0.0703139001246333	-0.665883334745974
6714018810	-0.60573147476262	-0.275491041823718
6732018780	-0.52219004388849	0.387343749148497
6750018750	0.107015932095374	0.632635625254906
6768018720	0.619948313683693	0.191408694649062
6786018690	0.469392160440683	-0.459867729207505
6804018660	-0.173315869684079	-0.628667093985614
6822018630	-0.620459896959347	-0.140786627887425
6840018600	-0.404449201588494	0.484230239587393
6858018570	0.244420505868459	0.588483476349774
6876018540	0.638994044305542	0.0641771679218156
6894018510	0.355097287999836	-0.524735868723055
6912018480	-0.300316213548132	-0.539381442556553
6930018450	-0.613240845903386	0.0304201193040105
6948018420	-0.260797921441373	0.566479266693522
6966018390	0.3682141449457	0.508233459219971
6984018360	0.608436594844439	-0.0801104519713892
7002018330	0.184742187328817	-0.560065315627242
7020018300	-0.430559229120727	-0.392660856406736
7038018270	-0.55249075061851	0.218951836140232
7056018240	-0.0747588533025011	0.599891469305601
7074018210	0.475675548743721	0.344700554349695
7092018180	0.492306657227986	-0.270340485220399
7110018150	-0.0640171988804717	-0.54600361938825
7128018120	-0.537366870018511	-0.170505011781929
7146018090	-0.410909647361738	0.400218152940655
7164018060	0.151436437680416	0.545253415315551
7182018030	0.528788185359657	0.0946232763652531
7200018000	0.273488923243962	-0.443185230218972
7218017970	-0.312823347593218	-0.431171042626646
