!Keysight Technologies N9917A: A.12.46
!Date: Friday, 22 December 2023 20:15:29
!TimeZone: (UTC-03:00) Buenos Aires!Model: N9917A
!Serial: MY56072049
!GPS Latitude: 
!GPS Longitude: 
!GPS TimeStamp: 0001-01-01 00:00:00Z
!GPS Seconds Since Last Read: 0
!CHECKSUM:1508100974
!Correction: S11(ON U)
!S1P File: Measurement: S11:
# Hz S DB R 50
30000	0.0170166374870997	0.00360127599552538
18029970	-0.137915126923312	-0.645690536353296
36029940	-0.431829943454322	-1.49327718656336
54029910	-0.502588736299458	-2.28797799507447
72029880	-0.293237964364634	-3.60505661072707
90029850	-0.0310814710558056	-4.57606220873452
108029820	-0.0432542894808022	-5.37566149001907
126029790	-0.301500555856634	-5.92377687874587
144029760	-0.478092617218626	-6.31949234205511
162029730	-0.368593400908719	-7.48831813139911
180029700	-0.094385352696545	-8.87309352850405
198029670	-0.0126811876193375	-9.94288073274709
216029640	-0.197281974304582	-10.8303247791293
234029610	-0.412601338589574	-11.1891008568416
252029580	-0.368062994838787	-11.9104468125481
270029550	-0.131997186009437	-12.9895696644819
288029520	-0.0163784326123328	-14.2745488089081
306029490	-0.140576908829891	-15.7228834141385
324029460	-0.360641108424958	-16.65615665192
342029430	-0.342105051412485	-17.3139428924914
360029400	-0.132529005077297	-17.7482174771315
378029370	-0.0138705718585515	-18.3349209544527
396029340	-0.12441955827677	-19.9481160620155
414029310	-0.32432351704838	-21.6351025236302
432029280	-0.318653862100568	-22.8528600251358
450029250	-0.123367714810961	-23.411389105753
468029220	-0.00471188515355064	-23.3246049208771
486029190	-0.137061874652496	-24.0643276035779
504029160	-0.314151641337925	-25.7229789134741
522029130	-0.314741235274638	-27.4549596685513
540029100	-0.147822039843948	-28.3186653868987
558029070	-0.0738321861756378	-28.2018381257617
576029040	-0.191866729777739	-28.2838399567751
594029010	-0.321597566342803	-29.2583523682702
612028980	-0.286057591394166	-30.7776509466405
630028950	-0.152316883534054	-32.0591219061134
648028920	-0.125790493245674	-32.3906945620142
666028890	-0.279707957694057	-32.7278228482215
684028860	-0.390878826169615	-32.9909020398781
702028830	-0.260961003443211	-33.9675314961486
720028800	-0.0933792728127148	-34.5898359228603
738028770	-0.153833504138452	-35.1409866131516
756028740	-0.385786038903237	-35.9361753356283
774028710	-0.495699556321993	-36.8486538224724
792028680	-0.300956956133401	-37.4381545802411
810028650	-0.045711514493072	-37.0592902843804
828028620	-0.10725292973406	-36.9752280887747
846028590	-0.412913405774577	-38.259441081564
864028560	-0.638777257127415	-40.2464258831035
882028530	-0.402673961820852	-41.4231778072492
900028500	-0.0193825666007677	-40.5083636131263
918028470	-0.00170245378732511	-39.1622699203676
936028440	-0.408827993660266	-40.1049457353244
954028410	-0.746811155014304	-42.7734481850397
972028380	-0.594850361766011	-45.445606056131
990028350	-0.102386514771005	-45.1711191630116
1008028320	0.0239331333002886	-42.7568949927033
1026028290	-0.31499988737435	-42.3089996544659
1044028260	-0.797044750976388	-44.8110159367612
1062028230	-0.80592265155038	-48.7514624641519
1080028200	-0.309140475262073	-50.4627603415027
1098028170	0.0228024223739422	-48.3253674834627
1116028140	-0.266370817508304	-46.4839085025409
1134028110	-0.714766238539881	-47.5340996933337
1152028080	-0.91329900158427	-50.9933831890253
1170028050	-0.572428772318225	-54.5137802274341
1188028020	-0.195317079478496	-54.3778612113313
1206027990	-0.291004246110669	-52.7776085638104
1224027960	-0.677683086695018	-52.6982601174688
1242027930	-0.915072648513874	-54.999647159013
1260027900	-0.767126775799061	-58.1022112689448
1278027870	-0.513094422662883	-59.7146548869427
1296027840	-0.55247967973747	-59.6881475074886
1314027810	-0.748182622141279	-59.827237141886
1332027780	-0.84898092340291	-60.7172402029167
1350027750	-0.764344395234904	-62.0494531629754
1368027720	-0.710592795682914	-63.4920432615755
1386027690	-0.823609313529327	-65.5817250370484
1404027660	-0.979859797371312	-67.6944117457558
1422027630	-0.818990979615599	-68.8722297362967
1440027600	-0.650144769262983	-68.3885580979178
1458027570	-0.752811538208942	-67.6691717488786
1476027540	-1.12846680607198	-69.5668187895182
1494027510	-1.35934005047847	-73.8203577753418
1512027480	-1.02044874945064	-77.4513283296137
1530027450	-0.534947658918165	-76.6261150679443
1548027420	-0.636026362156845	-72.8288394208178
1566027390	-1.27104573852422	-72.1709814733342
1584027360	-1.71662319837822	-75.9956479203087
1602027330	-1.35234295219961	-81.9755282893739
1620027300	-0.573834264890659	-83.317893101354
1638027270	-0.477777754732671	-79.0588046975523
1656027240	-1.15894163398636	-75.749988128652
1674027210	-1.8388090641252	-77.2137747365034
1692027180	-1.63800261973865	-82.8615557865735
1710027150	-0.67940653140619	-86.691956810336
1728027120	-0.287471454153338	-84.194509765395
1746027090	-0.928262538230187	-79.7520838062989
1764027060	-1.71347831960375	-77.8917552992396
1782027030	-1.76537485665596	-81.0207391826915
1800027000	-0.96581118232842	-85.5067921903258
1818026970	-0.359441551636896	-86.0414312866882
1836026940	-0.752084328802223	-83.5308592271569
1854026910	-1.51506066096328	-80.6175187532279
1872026880	-1.70414407985689	-79.9398475900795
1890026850	-1.15531029693051	-81.4718799062484
1908026820	-0.585574304935052	-82.9655786560737
1926026790	-0.721773118963903	-84.1340408135216
1944026760	-1.32158014192647	-83.2812182950944
1962026730	-1.53523083622105	-80.9123296425014
1980026700	-1.16309025911945	-78.4975498621224
1998026670	-0.788491061815014	-78.1187526781581
2016026640	-0.829931205306367	-80.6638258034696
2034026610	-1.18643769510261	-83.8891496830778
2052026580	-1.30078386424964	-83.80260003511
2070026550	-1.05743136688238	-79.5496431857837
2088026520	-0.881096000225885	-75.5012877481506
2106026490	-0.998776419124393	-76.2995003374025
2124026460	-1.22094560369481	-81.5082407932534
2142026430	-1.19003853824641	-85.6446292069732
2160026400	-0.925363540695585	-83.1875832988586
2178026370	-0.883254780393442	-76.9475408065853
2196026340	-1.1484865421887	-74.1826437302797
2214026310	-1.3827284058234	-77.5273917112387
2232026280	-1.21314731509117	-83.932699935827
2250026250	-0.8645787062528	-85.7771838215791
2268026220	-0.853682466538696	-81.1484368043635
2286026190	-1.23646867729234	-76.176914406833
2304026160	-1.54055350385045	-76.5371067554766
2322026130	-1.34473941244438	-81.9588973384069
2340026100	-0.824969265830765	-87.1297158888961
2358026070	-0.766597695904654	-86.2513215815263
2376026040	-1.29208204981539	-82.2706146219655
2394026010	-1.74156597548363	-79.8902743216348
2412025980	-1.53781864697556	-82.4380295443551
2430025950	-0.942278428427631	-87.2443905126768
2448025920	-0.728535020553439	-89.9850611686596
2466025890	-1.2698145564272	-89.1989064467933
2484025860	-1.92793388185984	-87.1458485726437
2502025830	-1.79860414110116	-86.5612784824682
2520025800	-1.13839030282405	-88.397387304059
2538025770	-0.767910228462201	-91.4317321841583
2556025740	-1.24814191036267	-94.4840468420815
2574025710	-2.02781319498026	-95.8699163182423
2592025680	-2.07789676632303	-95.3231325170208
2610025650	-1.36533898855718	-93.8341283332235
2628025620	-0.860895401533554	-93.8291504209209
2646025590	-1.18417485763288	-97.5711140365267
2664025560	-2.0222292051098	-103.162503496116
2682025530	-2.28780434922946	-105.644538091704
2700025500	-1.62844507748421	-103.0102471914
2718025470	-1.01778300998878	-98.8186452534151
2736025440	-1.2228745842507	-99.9567751112724
2754025410	-1.93950210827276	-107.168805423788
2772025380	-2.39608399790351	-114.076289871522
2790025350	-1.9377353341089	-114.343405456298
2808025320	-1.29850091899276	-108.53956378331
2826025290	-1.3082881307218	-105.216365824992
2844025260	-1.8302349599813	-109.605201868101
2862025230	-2.25376447779966	-118.049433240506
2880025200	-2.03273148831404	-122.100441277127
2898025170	-1.58233317138095	-118.059691485631
2916025140	-1.52270335801092	-112.38015998301
2934025110	-1.77384239293757	-112.294261940037
2952025080	-1.90424463220454	-117.895720577741
2970025050	-1.79754262886119	-123.033492273484
2988025020	-1.69951621452675	-122.627717213354
3006024990	-1.81714657090976	-118.735515590169
3024024960	-1.882161733534	-116.482546767571
3042024930	-1.67024448999629	-118.133456240473
3060024900	-1.40017197672487	-120.910844059167
3078024870	-1.53300755908795	-121.748508549346
3096024840	-2.01928734343263	-120.446893537812
3114024810	-2.16344057229434	-119.077059014491
3132024780	-1.61586519613916	-118.216186222438
3150024750	-1.02557590785074	-117.089118036868
3168024720	-1.1509025665117	-116.548105274249
3186024690	-1.92062990387034	-117.413535053602
3204024660	-2.42111970834829	-118.783516760684
3222024630	-1.84384056549135	-118.308345207513
3240024600	-0.873908915493839	-114.306727524463
3258024570	-0.715681587099375	-110.290858275374
3276024540	-1.54042868189888	-110.100823955359
3294024510	-2.42738078274069	-113.467266893656
3312024480	-2.18583606998675	-115.997207893467
3330024450	-1.04471829593871	-113.20646150369
3348024420	-0.503567787613935	-106.6892520727
3366024390	-1.12318521163587	-103.710770431179
3384024360	-2.13583459302154	-106.006211716786
3402024330	-2.34925513687295	-110.071682958545
3420024300	-1.43247916814684	-110.169645440475
3438024270	-0.608566185387718	-104.847668707932
3456024240	-0.819490889229344	-100.066808713616
3474024210	-1.66162950514012	-99.9790718281027
3492024180	-2.18766121997347	-103.173439364844
3510024150	-1.78049934589332	-105.644525651954
3528024120	-1.00358655648869	-103.330676392592
3546024090	-0.838527962281576	-98.6877294953705
3564024060	-1.35596009927815	-96.5076423526293
3582024030	-1.81383210770256	-97.3922496569057
3600024000	-1.79025320514487	-99.3674476509452
3618023970	-1.46208802916573	-100.127210203178
3636023940	-1.20986291418193	-98.9942885716219
3654023910	-1.29449249387095	-97.2606270262835
3672023880	-1.45498046672369	-96.1574432369178
3690023850	-1.55620267379834	-95.6349597447251
3708023820	-1.64535905597204	-96.1362740610896
3726023790	-1.74965011747711	-97.7092569146251
3744023760	-1.67971376556247	-99.6768258661132
3762023730	-1.42509798307286	-99.4929556306938
3780023700	-1.25353482418507	-97.4026937187333
3798023670	-1.49682613061388	-95.6488120279409
3816023640	-2.02563788566153	-96.9073159938827
3834023610	-2.28206857136118	-100.97825062062
3852023580	-1.84303062056672	-104.055331773874
3870023550	-1.2056007756222	-102.564517375056
3888023520	-1.24941236744175	-99.0150397110518
3906023490	-2.01551926768294	-98.731724787282
3924023460	-2.75511168656212	-103.170162435942
3942023430	-2.57270182474375	-110.049491611217
3960023400	-1.59005432559753	-112.348569139327
3978023370	-1.10880363789191	-108.897015014773
3996023340	-1.769929153108	-106.118477316076
4014023310	-2.81708030152945	-108.106412868924
4032023280	-3.11001961328612	-114.508877827972
4050023250	-2.2840503204846	-120.758330044066
4068023220	-1.34234136085169	-120.319021614221
4086023190	-1.56667491420753	-117.150807292938
4104023160	-2.59961354859086	-116.522088152696
4122023130	-3.27989392346327	-120.363580322594
4140023100	-2.94425098444936	-127.201570792058
4158023070	-1.98133199107428	-131.883057450273
4176023040	-1.67515163406596	-132.064365090893
4194023010	-2.29081372076209	-130.3958433084
4212022980	-2.99024587021128	-130.497769828187
4230022950	-3.05310422413172	-133.844532047498
4248022920	-2.55437050364706	-139.438529383933
4266022890	-2.07986791975858	-144.180295232341
4284022860	-2.09732714385647	-145.169954487713
4302022830	-2.4286098829404	-143.389090658142
4320022800	-2.64287019256948	-141.354204168772
4338022770	-2.65991230201533	-143.5321141911
4356022740	-2.51873133561114	-150.092737153344
4374022710	-2.29766946971156	-155.674497218989
4392022680	-1.99562951568172	-154.627752178148
4410022650	-1.93827466982785	-148.676358319257
4428022620	-2.24321985751954	-145.316409752778
4446022590	-2.62810731208801	-149.433318583855
4464022560	-2.61033980808317	-157.920478502284
4482022530	-1.94199719582751	-161.353265240118
4500022500	-1.3538028753034	-155.450548979671
4518022470	-1.53289400149401	-147.162830742509
4536022440	-2.29805993016514	-145.53391084406
4554022410	-2.6726756629063	-151.964757226699
4572022380	-2.10863277383232	-158.156572178533
4590022350	-1.11368920204395	-155.601009697481
4608022320	-0.946839167555847	-146.384413128382
4626022290	-1.73270559191159	-140.11449138957
4644022260	-2.49020260935211	-141.80531226926
4662022230	-2.27089938136229	-147.419408219331
4680022200	-1.25691308466142	-148.691699086033
4698022170	-0.670419948398998	-142.388753957194
4716022140	-1.17703841055704	-134.585863804519
4734022110	-2.00832300263231	-131.123151417807
4752022080	-2.16632044889786	-132.32960771386
4770022050	-1.5072624637056	-134.105791405579
4788022020	-0.817267352670694	-132.621815393713
4806021990	-0.975545141009627	-128.254230114338
4824021960	-1.61867511709082	-123.697077181818
4842021930	-1.93041403801452	-120.589219016757
4860021900	-1.58921700142946	-119.462188267403
4878021870	-1.11457424016004	-119.364984035466
4896021840	-1.09394237714036	-119.616201833077
4914021810	-1.43007028007234	-118.301802452514
4932021780	-1.66420841843085	-113.628481353885
4950021750	-1.46604180959404	-108.798412947419
4968021720	-1.29965863289683	-106.930984832446
4986021690	-1.34306128614848	-109.201756799082
5004021660	-1.50264423846543	-111.681899833298
5022021630	-1.49048425208725	-109.400687268213
5040021600	-1.35201464332625	-102.970108126521
5058021570	-1.40775138521887	-98.4749230807086
5076021540	-1.61834531035832	-100.384871911272
5094021510	-1.80356935186784	-105.73278451306
5112021480	-1.60876623078683	-107.437470938804
5130021450	-1.34324987294641	-102.250984337423
5148021420	-1.45131974122768	-95.8934758839742
5166021390	-1.82461259301754	-95.2060352834099
5184021360	-2.16395859057343	-100.784925730406
5202021330	-1.93691618283339	-106.575533209068
5220021300	-1.41640205115342	-105.342036643202
5238021270	-1.47655222073359	-99.819828732781
5256021240	-1.98077734019506	-96.891625391472
5274021210	-2.4995761657747	-100.407462469758
5292021180	-2.39561966477909	-107.644059902904
5310021150	-1.83643785109769	-110.308210050152
5328021120	-1.64678374661775	-107.034957038267
5346021090	-2.13136904041738	-104.150267559544
5364021060	-2.78092075647784	-105.812267583304
5382021030	-2.93561946061282	-111.574447356
5400021000	-2.35036140801423	-116.698410893734
5418020970	-1.98700949389892	-117.127334264607
5436020940	-2.33037420552119	-116.03820349098
5454020910	-3.02659161129968	-116.953585059599
5472020880	-3.29080853341907	-120.576121048955
5490020850	-2.84807525344011	-124.865909775865
5508020820	-2.44240465631264	-128.109226616772
5526020790	-2.62471659608563	-131.29307949364
5544020760	-3.25210209848648	-134.203095172581
5562020730	-3.47372972941922	-136.197738190932
5580020700	-3.15240643455723	-136.460173281366
5598020670	-2.77745350213855	-138.231784003727
5616020640	-2.93770679000017	-144.085320340684
5634020610	-3.3660957878941	-151.572799028525
5652020580	-3.46669814339809	-155.513139481738
5670020550	-3.12156504328701	-153.44124069325
5688020520	-2.85442159018633	-151.655959417365
5706020490	-3.05385837436544	-156.775527739257
5724020460	-3.29275479319201	-166.667931912176
5742020430	-3.06150513773484	-172.709016719259
5760020400	-2.66879736834193	-169.093308391243
5778020370	-2.57803984710296	-163.112057238791
5796020340	-2.87013760511479	-164.818582100817
5814020310	-3.10628931282463	-174.327149138005
5832020280	-2.69732442883874	178.414406446108
5850020250	-2.10815831140463	-178.426675116239
5868020220	-2.02797709011471	-170.05685326291
5886020190	-2.5023288406959	-167.490885573708
5904020160	-2.86474693963084	-174.892557622085
5922020130	-2.4299951775306	177.000735742001
5940020100	-1.70798070740542	177.95474702628
5958020070	-1.51960335406693	-173.476739434134
5976020040	-2.07454357089026	-168.148118775117
5994020010	-2.55229969368822	-171.117196341297
6012019980	-2.17630466250816	-177.103946093582
6030019950	-1.37540118481299	-176.583743252576
6048019920	-1.12452780548425	-169.0440576665
6066019890	-1.70905711171381	-163.056749092859
6084019860	-2.24241172850259	-163.68649718603
6102019830	-1.96212234736793	-166.583092475672
6120019800	-1.18920382482625	-164.594848581397
6138019770	-0.858113563938087	-157.936163002682
6156019740	-1.35029388793549	-152.130054384724
6174019710	-1.93323690373128	-151.192068919783
6192019680	-1.82787458692371	-151.406306647083
6210019650	-1.13868001360614	-148.003875391829
6228019620	-0.821211355640341	-141.925879998024
6246019590	-1.2356604218183	-138.273711900297
6264019560	-1.81428378777652	-138.641022344076
6282019530	-1.71698917814964	-138.462027597511
6300019500	-1.16597872296474	-133.67551844979
6318019470	-0.857273665577285	-126.728672597701
6336019440	-1.19830872926877	-123.702841124919
6354019410	-1.70460121369351	-125.283836924893
6372019380	-1.70961394358792	-125.876569315974
6390019350	-1.23219229003336	-120.810559891747
6408019320	-1.03039288806057	-113.108680228541
6426019290	-1.31054714718864	-110.73319078223
6444019260	-1.78892952810589	-114.359310197821
6462019230	-1.80420372030403	-117.336226875099
6480019200	-1.35259048597459	-113.513223500344
6498019170	-1.15975141815723	-104.972776199203
6516019140	-1.45183743884581	-100.948542914069
6534019110	-1.87250641012306	-104.312798977442
6552019080	-1.96822159658433	-110.110909568044
6570019050	-1.60556818643496	-110.197499454016
6588019020	-1.40231641584467	-103.89318544328
6606018990	-1.62845760796665	-98.8655971248224
6624018960	-2.02917981222502	-100.025500850471
6642018930	-2.15712037387718	-105.435531319023
6660018900	-1.85538572232854	-108.26498352615
6678018870	-1.62468120554153	-104.966179923635
6696018840	-2.00143023681358	-100.953076809785
6714018810	-2.41303409270638	-101.738385862801
6732018780	-2.46339700978193	-106.487561026875
6750018750	-2.12224003607303	-110.009836087556
6768018720	-1.98079866796419	-108.714295083413
6786018690	-2.37894840446875	-106.642164352401
6804018660	-2.92924688166822	-108.480628802171
6822018630	-2.97647780077121	-113.584106071678
6840018600	-2.50896793214267	-116.48320703981
6858018570	-2.28319509117936	-115.881566055966
6876018540	-2.77842399172769	-115.260276902473
6894018510	-3.44789754228451	-118.976380896607
6912018480	-3.53392069944881	-125.0942064741
6930018450	-2.95337211849075	-127.721305133471
6948018420	-2.65513822535732	-126.364166216707
6966018390	-3.17093447522402	-126.833850794978
6984018360	-4.02807481931675	-133.397591000198
7002018330	-4.13722715914351	-142.784075327761
7020018300	-3.3961071684779	-146.992949181729
7038018270	-2.87097017046789	-144.510803706809
7056018240	-3.32323987296354	-143.162692836224
7074018210	-4.14959390057371	-149.827498228627
7092018180	-4.30879878449725	-160.782500186159
7110018150	-3.53120557447289	-165.998551173378
7128018120	-2.894838404554	-162.463608690653
7146018090	-3.19064959691448	-159.116756572859
7164018060	-3.9190744145843	-164.186036768976
7182018030	-4.06823631147683	-175.412393015796
7200018000	-3.36997732182265	178.323246174469
7218017970	-2.72851793942597	-178.769345807191
7236017940	-2.87980878225081	-173.781914236705
7254017910	-3.41322933640815	-175.845560784786
7272017880	-3.50619524094316	175.768106599518
7290017850	-2.91615066147126	169.731413303259
7308017820	-2.4489534056227	171.056687007378
7326017790	-2.5441542377313	175.549631226594
7344017760	-2.86589102701499	176.048365276541
7362017730	-2.76827460903362	172.121489807467
