!Keysight Technologies N9917A: A.12.46
!Date: Friday, 22 December 2023 20:14:06
!TimeZone: (UTC-03:00) Buenos Aires!Model: N9917A
!Serial: MY56072049
!GPS Latitude: 
!GPS Longitude: 
!GPS TimeStamp: 0001-01-01 00:00:00Z
!GPS Seconds Since Last Read: 0
!CHECKSUM:1514135208
!Correction: S11(ON U)
!S1P File: Measurement: S11:
# Hz S DB R 50
30000	-0.116050793139619	-0.257321835112794
18029970	-0.767462391674201	-74.3829695470556
36029940	1.20572941383236	-179.620053592969
54029910	2.19263288285848	161.335368730024
72029880	1.50979127246937	173.179346099784
90029850	0.396495780788919	-175.872930378931
108029820	-0.44618943773828	-179.495437399402
126029790	-0.281006154229387	160.932460937552
144029760	0.577947917743704	144.780677736359
162029730	1.02674739144249	143.474845933122
180029700	0.521517664819996	150.934180201717
198029670	-0.504259726435375	154.012582372281
216029640	-0.899870288086182	146.645941923787
234029610	-0.288417301932198	135.478948150953
252029580	0.447597185782681	130.245580351635
270029550	0.356456630207681	132.075278749913
288029520	-0.500279907469762	134.306344277465
306029490	-1.09653071355303	131.231837851007
324029460	-0.755253556711997	124.602904779575
342029430	-0.0927707444859115	120.267898740458
360029400	0.0149476856666644	119.574542042028
378029370	-0.621731542510418	119.255894495963
396029340	-1.22713373794264	115.966779901066
414029310	-1.13511944357245	111.234839349156
432029280	-0.654750363908855	108.267309394357
450029250	-0.535549597994053	107.574454640208
468029220	-1.0795601598457	106.434455297945
486029190	-1.64901687090851	102.475923635431
504029160	-1.69949503569217	97.9660684435931
522029130	-1.42757100415688	95.2113377892476
540029100	-1.41851706596621	94.6572481895939
558029070	-1.83218750852144	93.6241886202953
576029040	-2.23940306857898	90.1279195813556
594029010	-2.28984390398288	85.2639842418513
612028980	-2.13800947801998	81.3273837253123
630028950	-2.13878560612022	79.2820790972976
648028920	-2.40543082513135	77.5217160709277
666028890	-2.66499586435272	74.69171617955
684028860	-2.73740524660306	70.7544091349902
702028830	-2.82592366735265	66.4907081126107
720028800	-3.01908033229056	62.586102437068
738028770	-3.22984702905296	59.5164525172704
756028740	-3.3655208454182	57.0713277506183
774028710	-3.46316638453007	54.9558279564919
792028680	-3.64941646377923	51.3850013336346
810028650	-3.95165931072403	46.5945921404481
828028620	-4.06651448344043	42.3769010188952
846028590	-4.10476826741638	40.079762458917
864028560	-4.28931156119743	39.4269631089954
882028530	-4.66942211235158	37.8437741230421
900028500	-5.08231034028291	33.6153802790313
918028470	-5.11160930373609	28.8974643667062
936028440	-5.09693905122275	27.1507519179138
954028410	-5.28302496281881	27.6711548950277
972028380	-5.80581429766032	27.0711553200707
990028350	-6.3346651056926	23.3652518886871
1008028320	-6.30598611005417	18.9420180699573
1026028290	-6.10398480775409	17.9151531868659
1044028260	-6.16646099689378	19.1784754731117
1062028230	-6.65821226579214	20.7113338481765
1080028200	-7.36716249970859	17.5467941721611
1098028170	-7.39879489965828	12.3464327565875
1116028140	-7.01431516665561	11.5918254365815
1134028110	-6.8964414958888	14.0852576444696
1152028080	-7.30256550775028	16.8360513457747
1170028050	-7.99394760635364	15.3350657208119
1188028020	-8.08755538110968	10.0808200763275
1206027990	-7.52450842848012	7.73239639256162
1224027960	-7.25871015367198	10.2540560535254
1242027930	-7.58581883118044	13.7114971944318
1260027900	-8.09929915469653	13.7394978122606
1278027870	-8.45991413406396	8.02694876790416
1296027840	-7.96235159190584	3.3980896217648
1314027810	-7.59419978528935	4.66219236284898
1332027780	-7.88874138826363	9.32373645727279
1350027750	-8.7209274978411	11.9808589919058
1368027720	-9.55213852245645	7.41247716157719
1386027690	-9.35901303399461	-1.51434653523575
1404027660	-8.57216468789738	-3.54559587038966
1422027630	-8.37768002232136	1.51895304500295
1440027600	-8.96033650350385	8.73162323666137
1458027570	-10.3138860024355	11.2642554308871
1476027540	-11.6829170859893	1.67954046358768
1494027510	-11.1778193705608	-14.3696504672757
1512027480	-9.52028776821172	-16.3216806997413
1530027450	-8.94275395536539	-4.69902765152069
1548027420	-9.55771079846385	9.27161391050204
1566027390	-11.6942555369724	18.7070499178886
1584027360	-16.8334018475039	10.902670841425
1602027330	-16.3311837502601	-44.6284703234059
1620027300	-10.7231880241556	-39.537294422143
1638027270	-8.80400904084895	-15.3174682502457
1656027240	-8.79909998058819	8.55612193317458
1674027210	-10.2454911655355	31.6971964391446
1692027180	-14.9961257051723	57.0554581483166
1710027150	-28.6526949145122	-74.8098942913274
1728027120	-12.2741243714496	-51.0812917348812
1746027090	-9.12849359269137	-22.0621928390706
1764027060	-8.4356175398673	2.04255553442766
1782027030	-9.35919617963979	21.8145327502365
1800027000	-13.8359790462776	35.5242108291731
1818026970	-19.750923533251	-29.007781952938
1836026940	-11.6214474382689	-41.0336351392431
1854026910	-9.15092572041038	-19.4173730530987
1872026880	-8.43493158764112	-2.15671684170042
1890026850	-9.54197583934902	9.85628494278583
1908026820	-13.0128052234929	6.36048624890723
1926026790	-13.7007850311338	-27.1028718330349
1944026760	-11.0958085469514	-39.3751982062437
1962026730	-9.95119693203957	-25.6299669435307
1980026700	-9.92167782411874	-11.7564750621323
1998026670	-11.6223159264928	-5.1701705441581
2016026640	-14.6015840032266	-15.3220823289386
2034026610	-13.8207219271239	-37.4769768664312
2052026580	-10.7967435506433	-36.2913470927334
2070026550	-8.74934505943033	-25.1435447289116
2088026520	-8.43757444095208	-16.7774555543809
2106026490	-9.31640087548031	-15.2063441493986
2124026460	-10.7508465013353	-24.3127558404509
2142026430	-10.1205504087718	-37.558974288107
2160026400	-7.93202816308776	-36.3249290063153
2178026370	-6.79630240067098	-28.7744077657496
2196026340	-6.93553377379677	-24.0106267368616
2214026310	-8.2230190678416	-25.9350738582524
2232026280	-9.37405005189562	-37.563221798983
2250026250	-8.58746645002169	-46.7076949060035
2268026220	-7.44431510584294	-41.9010481568967
2286026190	-7.23747676018377	-33.7951053465024
2304026160	-8.12518982803702	-29.8449608538108
2322026130	-9.89919537975048	-34.1397905290408
2340026100	-10.6654117238878	-48.9398005299134
2358026070	-9.36614530072908	-52.0029901721851
2376026040	-8.61384417469322	-42.9896377737136
2394026010	-8.82396203047642	-34.0301405753925
2412025980	-10.2949348675468	-30.6991060523351
2430025950	-12.0219301835969	-37.6670695683036
2448025920	-11.9832870350536	-49.2132337435173
2466025890	-10.8416246710834	-47.2271295450099
2484025860	-10.3200438802541	-37.394475598597
2502025830	-10.7267634873498	-29.438412306044
2520025800	-11.9308995561977	-26.9514876601633
2538025770	-13.383876331616	-32.8916501981513
2556025740	-13.3898852578058	-40.4020750072364
2574025710	-12.6163598565532	-37.7527917664057
2592025680	-13.0989613702892	-32.8504833334621
2610025650	-14.5542506194989	-27.9309952908899
2628025620	-16.1626489569548	-25.6268441451274
2646025590	-18.7294687131119	-30.6645393397497
2664025560	-23.9575685135604	-55.5278566347594
2682025530	-24.2477790734274	-65.2539433785958
2700025500	-27.4717406410103	-101.616493692176
2718025470	-33.5940088758829	-108.233355743166
2736025440	-44.2223424636458	104.707180851247
2754025410	-32.4317699765572	123.956184863243
2772025380	-30.0644697083027	165.23563483741
2790025350	-28.3273097895816	-149.058430701321
2808025320	-28.3375999562542	-87.9639042481935
2826025290	-28.6775596484917	-34.8017056594432
2844025260	-29.4618961042011	6.5810203126074
2862025230	-38.1207983753732	63.3121081553011
2880025200	-32.1564495360934	-133.198908291559
2898025170	-25.1455580407136	-94.3733257819368
2916025140	-23.8450324869747	-64.2712450372506
2934025110	-26.5847569976097	-40.0201917141771
2952025080	-34.989379406926	-43.9440042758304
2970025050	-27.8438372355483	-156.018221638001
2988025020	-21.9851035076942	-146.195122642903
3006024990	-22.1528545637287	-133.591814636267
3024024960	-24.3463458282655	-143.594803347508
3042024930	-24.1275569508533	-161.062345158161
3060024900	-20.5278344917087	-165.606941938954
3078024870	-18.873979785738	-150.180443763501
3096024840	-18.8173560389544	-136.318697297029
3114024810	-19.7996008051636	-128.240361166046
3132024780	-19.7130286374828	-136.911974994779
3150024750	-18.3071824223273	-140.797192547363
3168024720	-16.9697860427341	-133.637369075726
3186024690	-16.9136037087782	-119.350735755312
3204024660	-17.4092443092925	-109.601087496889
3222024630	-16.8955315970583	-101.071592354256
3240024600	-14.984387339201	-90.6734855649239
3258024570	-13.0393618835442	-80.0852594562745
3276024540	-11.8222372825264	-69.2490522515113
3294024510	-11.6901835460831	-64.9997330331347
3312024480	-11.9736093993427	-67.595864964397
3330024450	-11.4222298034774	-71.8989243696915
3348024420	-10.6090294429396	-72.5130980552889
3366024390	-10.2247400862758	-68.7449515917269
3384024360	-10.6175948112475	-66.2742634730281
3402024330	-11.0279915314348	-67.9756396739552
3420024300	-10.8042492705957	-72.4398662179549
3438024270	-10.0524273786251	-73.5223933599738
3456024240	-9.59583577659751	-70.1772504264812
3474024210	-9.70707624428131	-67.0476112379827
3492024180	-10.3196356024936	-68.306754816513
3510024150	-10.3312562946855	-70.8721083930022
3528024120	-9.83561324356902	-72.820716958549
3546024090	-9.46475025988188	-71.6205753463972
3564024060	-9.2661143972933	-67.9393277369352
3582024030	-9.29477707438305	-65.5011155028529
3600024000	-9.35869122164321	-65.9514509086723
3618023970	-9.33108664932143	-66.9584925255074
3636023940	-9.32565452487264	-68.0935474880816
3654023910	-11.3170593168825	-82.8111526744913
3672023880	-11.2749111445474	-81.4204607277683
3690023850	-11.2272873237669	-79.7447025451997
3708023820	-11.6848157816268	-80.5299076103636
3726023790	-12.2965085831324	-81.4724304835368
3744023760	-13.0830552874928	-88.820994039591
3762023730	-12.9447921528389	-94.2831212886682
3780023700	-12.1150260057612	-91.2662198848238
3798023670	-12.1919421843066	-86.4820241245578
3816023640	-12.804752307466	-82.6687950322951
3834023610	-13.5063655341277	-83.1316312302536
3852023580	-13.5720669441906	-88.8417968503246
3870023550	-12.3110778573546	-88.832666590618
3888023520	-11.3775785223238	-82.0931855271428
3906023490	-11.1817297660921	-73.4386334401333
3924023460	-11.5756089793276	-69.4483132812903
3942023430	-12.2974588207937	-72.3843929731166
3960023400	-11.9029027778915	-79.177372395884
3978023370	-10.5863634763623	-78.6961744311983
3996023340	-9.96493480254122	-73.2572416401434
4014023310	-10.227377311657	-69.1572815063
4032023280	-10.9390929061557	-70.0250733038561
4050023250	-11.3742412977605	-77.5043727648813
4068023220	-10.8952036165606	-84.1426337077069
4086023190	-10.3467827603506	-83.9664111366304
4104023160	-10.3309617555098	-78.909850517175
4122023130	-10.9005241912605	-75.7265056222288
4140023100	-11.8104963411668	-78.1698093602919
4158023070	-12.3518032115906	-86.5490302860265
4176023040	-11.9829287337567	-93.1736626504439
4194023010	-11.4304184353406	-92.9891573070344
4212022980	-11.3797021139588	-91.2305888727253
4230022950	-11.9533917113554	-91.3626571211437
4248022920	-12.9325118364533	-97.459647681015
4266022890	-13.4478507188559	-110.820356284358
4284022860	-12.6582127211204	-118.079331882268
4302022830	-11.7376756667954	-115.283439598996
4320022800	-11.2155526477291	-107.91786289895
4338022770	-11.857832937415	-106.812914940489
4356022740	-12.6694431760607	-115.156512751206
4374022710	-12.3406470115391	-128.661157363544
4392022680	-10.760661689943	-132.204722053432
4410022650	-9.56667234401069	-123.807788973302
4428022620	-9.44770615236212	-116.026578633599
4446022590	-10.4059470300182	-118.094893947201
4464022560	-10.9626290438991	-130.61377338103
4482022530	-9.91658606831531	-142.022259532788
4500022500	-8.35514487728189	-138.65419539644
4518022470	-7.80675388706476	-128.587471159208
4536022440	-8.48568095221436	-125.096421688315
4554022410	-9.37056434392529	-131.559288985246
4572022380	-8.91616499757958	-141.242791668086
4590022350	-7.51559844211496	-141.482053953315
4608022320	-6.63829421647002	-131.992376766068
4626022290	-6.71092476323063	-123.735659133289
4644022260	-7.24038145288181	-122.078753113313
4662022230	-7.45755091472008	-127.222738213627
4680022200	-6.63754266516525	-130.899629308305
4698022170	-5.79673779274815	-128.243624417491
4716022140	-5.56506431491076	-121.571902849028
4734022110	-5.94977461822188	-116.835881511754
4752022080	-6.33133285140377	-116.259089022848
4770022050	-6.45720750900129	-120.083970379614
4788022020	-6.18674780839712	-122.746425134455
4806021990	-5.81963670081739	-120.308123888636
4824021960	-5.76243043888644	-115.305240460845
4842021930	-5.79019566748172	-110.391075853939
4860021900	-5.92433579318903	-107.733574005957
4878021870	-6.06022942997379	-109.493696058184
4896021840	-6.10242621452137	-112.414856258833
4914021810	-5.83080626117316	-111.727216811154
4932021780	-5.4675507634998	-105.794305547523
4950021750	-5.32950045116181	-99.2019017701809
4968021720	-5.62840599095248	-96.8014360371285
4986021690	-6.07563171686946	-99.4592492101323
5004021660	-6.25757323210225	-104.165627415565
5022021630	-5.71198944659143	-102.27549496424
5040021600	-5.19448100439158	-94.6139051798627
5058021570	-5.31395514266703	-88.5550459483186
5076021540	-6.07854782344062	-89.4414961459048
5094021510	-6.6151480895162	-95.5209059739539
5112021480	-6.19403218655126	-98.4936623340501
5130021450	-5.42701715028203	-93.8427329283297
5148021420	-5.32821800165251	-86.3264476958106
5166021390	-5.9764291574184	-83.350265147192
5184021360	-6.83801461249503	-87.4911683650293
5202021330	-6.91367687104423	-94.2224322344987
5220021300	-6.28034663874762	-94.9791765934723
5238021270	-5.90212071055655	-89.3827765107797
5256021240	-6.22054226612383	-84.4565325777528
5274021210	-7.07750934436594	-85.3589931524219
5292021180	-7.62517105795533	-91.3083206688563
5310021150	-7.3423084364887	-95.7222999761268
5328021120	-6.92191222314694	-94.6404012519931
5346021090	-6.97085917093872	-90.3565225091703
5364021060	-7.64329827439969	-89.2896338919397
5382021030	-8.27191701745413	-93.0027132119875
5400021000	-8.26032521190302	-98.711127057965
5418020970	-8.05642922166155	-101.018044673077
5436020940	-8.07169994373836	-100.735098919955
5454020910	-8.99987494058174	-101.903351368796
5472020880	-8.35799415063696	-98.9750666194598
5490020850	-8.09255057018457	-100.678033242999
5508020820	-7.98614306645353	-103.255767216377
5526020790	-8.34456421226053	-107.984232283319
5544020760	-8.52527465321526	-112.203585312979
5562020730	-8.36008190510093	-113.40925675357
5580020700	-8.12791814966298	-112.307413483647
5598020670	-8.2170981750431	-112.35227773608
5616020640	-8.91909284088794	-118.176955210248
5634020610	-9.39550472690594	-128.508289988951
5652020580	-8.83010702173747	-134.616560907603
5670020550	-8.07977150501224	-132.383940132379
5688020520	-7.90079051316231	-128.184368263754
5706020490	-8.71325819706751	-132.0682391967
5724020460	-9.30174954284216	-145.130151325929
5742020430	-8.52497276516988	-155.255167115875
5760020400	-7.45880348546715	-152.895014717059
5778020370	-7.1858432528109	-145.994270230645
5796020340	-7.95334350020909	-146.36722701331
5814020310	-8.5834095204522	-157.959035843736
5832020280	-7.74904712970599	-168.706891996377
5850020250	-6.4819602969453	-166.533197052274
5868020220	-6.07818784869638	-157.915879560717
5886020190	-6.71732441308953	-154.393990949315
5904020160	-7.39590098729534	-162.030883125946
5922020130	-6.94633025672422	-171.969825715243
5940020100	-5.77101133999019	-172.464524185043
5958020070	-5.13254662356263	-164.719775067827
5976020040	-5.48939302554997	-158.690157667143
5994020010	-6.07893026600538	-160.864103215969
6012019980	-5.89717412864321	-166.903242094373
6030019950	-4.97078866966499	-167.727425030204
6048019920	-4.43267287428469	-161.542358729958
6066019890	-4.67643360431671	-156.044729994656
6084019860	-5.11633705588528	-155.802078891919
6102019830	-4.89332037590972	-157.608050265473
6120019800	-4.22381527157905	-155.96473071607
6138019770	-3.82902746034614	-150.637355230646
6156019740	-4.04514582957265	-146.094958889756
6174019710	-4.3841051332413	-144.738866767948
6192019680	-4.17682509342937	-143.763231095484
6210019650	-3.67768301290802	-139.764618680497
6228019620	-3.46490841497627	-134.503643134533
6246019590	-3.7802158318398	-131.838211610887
6264019560	-4.1190381286591	-132.631380389545
6282019530	-3.87143050265877	-131.568942181512
6300019500	-3.3086729168801	-126.002516403026
6318019470	-3.16493159215572	-119.210449829452
6336019440	-3.60828293652584	-116.720350628393
6354019410	-4.02321995805873	-118.678912845143
6372019380	-3.79058648793507	-119.537677738283
6390019350	-3.20740263002649	-113.59383884233
6408019320	-3.0720167642276	-105.923103511494
6426019290	-3.541151890272	-103.3291705129
6444019260	-4.08337238368926	-106.919534997699
6462019230	-3.9956848938719	-110.602948107754
6480019200	-3.33671328724556	-106.927746518297
6498019170	-3.11130157095569	-98.6991247982962
6516019140	-3.50118006421334	-93.6508651186301
6534019110	-4.14476790189722	-95.8129359851467
6552019080	-4.38715603171623	-101.440551394569
6570019050	-3.90606179724788	-103.28531053209
6588019020	-3.5194403917607	-97.5921033434584
6606018990	-3.7013897073403	-91.8097970299651
6624018960	-4.29097920832491	-91.1940006713402
6642018930	-4.65475106008906	-96.1087471318162
6660018900	-4.45637657765132	-100.004024559523
6678018870	-4.12605315807409	-98.0443554853692
6696018840	-4.25649249970971	-93.7300919219703
6714018810	-4.75739420168248	-92.7923008731867
6732018780	-5.16501810011656	-96.1343084303896
6750018750	-5.08819598841395	-100.16721709671
6768018720	-4.94156830596339	-100.467262072842
6786018690	-5.09147917567757	-98.8940527309434
6804018660	-5.636835375794	-99.4956587291333
6822018630	-5.94641720679696	-102.959885484922
6840018600	-5.81605952238019	-106.561933708943
6858018570	-5.67986566772455	-107.010418739399
6876018540	-6.10169764657412	-107.104687945848
6894018510	-6.78508568273949	-110.407138237292
6912018480	-7.01206159802105	-115.607307150772
6930018450	-6.65898757590395	-118.519772226229
6948018420	-6.52138809250935	-117.940808532355
6966018390	-7.1719618645542	-118.253633028
6984018360	-8.17895283722435	-125.494284917897
7002018330	-8.40362473203335	-136.814245924028
7020018300	-7.62855236884384	-141.50168577331
7038018270	-7.11338335304716	-139.245095164137
7056018240	-7.75949199502748	-137.957596591637
7074018210	-8.82261342806655	-146.299336171688
7092018180	-8.87585352090504	-160.115013579773
7110018150	-7.71792153564795	-166.700868226123
7128018120	-6.93535789826098	-162.41344289924
7146018090	-7.36628195661746	-158.74269372427
7164018060	-8.33688185657505	-164.789346295972
7182018030	-8.36621704136461	-179.034872835979
7200018000	-7.15608819388489	173.381314434957
7218017970	-6.18619997995016	176.971321162894
7236017940	-6.33732961434464	-177.363257342142
7254017910	-7.02394601206958	-179.260288189707
7272017880	-7.09061075866598	170.619560078258
7290017850	-6.28759753255275	162.046746570186
7308017820	-5.45614158003558	163.687297334782
7326017790	-5.38159954876495	168.989937855622
7344017760	-5.78309759410091	170.278518537417
7362017730	-5.77516248353135	166.556962496887
7380017700	-5.12047429062425	162.625239952244
7398017670	-4.63997331845122	163.311323965236
7416017640	-4.62823708797989	166.429591347212
7434017610	-4.79144284882269	168.696773922714
