!Keysight Technologies N9917A: A.12.46
!Date: Friday, 22 December 2023 20:19:21
!TimeZone: (UTC-03:00) Buenos Aires!Model: N9917A
!Serial: MY56072049
!GPS Latitude: 
!GPS Longitude: 
!GPS TimeStamp: 0001-01-01 00:00:00Z
!GPS Seconds Since Last Read: 0
!CHECKSUM:0345899404
!Correction: S11(ON U)
!S1P File: Measurement: S11:
# Hz S RI R 50
30000	0.998456103331715	-0.000432341138627128
18029970	0.998964057744325	-0.00509795780164945
36029940	0.996060007147845	-0.0194085288495134
54029910	0.984333161191672	-0.0632323102355993
72029880	1.03980637826205	0.0821606878492397
90029850	0.995880694592761	-0.0732062483972511
108029820	0.99165375606496	-0.0665276943935765
126029790	0.987961129958085	-0.0701844259825427
144029760	0.976154641534578	-0.0837252933725356
162029730	0.970982453761431	-0.105835261331173
180029700	0.97067800701359	-0.12376966068175
198029670	0.971331109659787	-0.128754597603676
216029640	0.964969436461602	-0.124646594599384
234029610	0.95532940946101	-0.130225326735213
252029580	0.949690200077994	-0.147847788236364
270029550	0.943920726980711	-0.167530577976017
288029520	0.939442721732648	-0.175070289192543
306029490	0.933897906895526	-0.175736183353305
324029460	0.923179323393801	-0.172790767315759
342029430	0.915509652643765	-0.184257749851596
360029400	0.911930502531512	-0.198449349426995
378029370	0.908979104823439	-0.208431140479153
396029340	0.902144928430803	-0.210691183586251
414029310	0.891346455129213	-0.210666953579877
432029280	0.878691628319573	-0.216882251943041
450029250	0.874544458346048	-0.227433816046793
468029220	0.874807892398548	-0.234393814933817
486029190	0.871048976950015	-0.236071661005679
504029160	0.861282488610232	-0.234412806671047
522029130	0.850516155588269	-0.239463728100307
540029100	0.843612682221859	-0.247236544348602
558029070	0.844224321721226	-0.253749171913036
576029040	0.842095086266767	-0.254140994861256
594029010	0.837703970716429	-0.249891916846438
612028980	0.830754496833337	-0.252278691472973
630028950	0.823325259836902	-0.25860793480899
648028920	0.816914821295925	-0.263683169392239
666028890	0.813952669226614	-0.26538637726383
684028860	0.812846984081391	-0.264253183984286
702028830	0.812906972697308	-0.263516032409958
720028800	0.809351367517767	-0.263269139946074
738028770	0.799932992601758	-0.265442615981809
756028740	0.789389900334798	-0.26622470026737
774028710	0.78682665070766	-0.269895744387306
792028680	0.792987877937311	-0.27285547469557
810028650	0.798828203221788	-0.271938549021513
828028620	0.794451482134108	-0.267527358750424
846028590	0.779291685238694	-0.265398281279748
864028560	0.763627731994179	-0.269892335172073
882028530	0.768052630292067	-0.27685441738991
900028500	0.784133508733423	-0.277859844260731
918028470	0.789062694800636	-0.271046288338276
936028440	0.773999350702552	-0.262205295671537
954028410	0.751128739945044	-0.265518601461216
972028380	0.74355409044169	-0.27735345564585
990028350	0.756964579214775	-0.285529642079917
1008028320	0.774587999949109	-0.279090838575955
1026028290	0.767458613724636	-0.266187080919718
1044028260	0.74322132683374	-0.261883839292416
1062028230	0.725217923203623	-0.27194617774443
1080028200	0.729127452195468	-0.289737792277084
1098028170	0.748714332876188	-0.288853654597039
1116028140	0.754816842059419	-0.275415495563045
1134028110	0.737772891567288	-0.266685873027137
1152028080	0.710481211136691	-0.270270904674128
1170028050	0.701791958253817	-0.285497629572172
1188028020	0.717692819527168	-0.29686227130437
1206027990	0.732594745054454	-0.286806311874173
1224027960	0.724239514447689	-0.275247077498759
1242027930	0.69825130943947	-0.273082047963392
1260027900	0.674458144650032	-0.285962384198213
1278027870	0.678987131466087	-0.299388906575594
1296027840	0.701928357921298	-0.298105071189847
1314027810	0.707882741120687	-0.286369919897419
1332027780	0.68535340090878	-0.281412349598014
1350027750	0.652140777713544	-0.285701748310081
1368027720	0.637447969224474	-0.299498463985483
1386027690	0.657436652600281	-0.308750460598466
1404027660	0.682214002968192	-0.305606249364264
1422027630	0.679555856032893	-0.297954467987381
1440027600	0.64257801265743	-0.292638370002301
1458027570	0.599553311194967	-0.288028477408507
1476027540	0.594477853792974	-0.303357858315773
1494027510	0.635235832120036	-0.331852613337467
1512027480	0.668666351361944	-0.338467952973035
1530027450	0.652791492357734	-0.321703787303619
1548027420	0.595341708165151	-0.282800227927278
1566027390	0.546426006649646	-0.251275984515204
1584027360	0.538593497877794	-0.302028992076944
1602027330	0.608756673028022	-0.400685314611012
1620027300	0.666342978670541	-0.411837591060229
1638027270	0.635410945157796	-0.339832033167947
1656027240	0.587091310065906	-0.23168859534002
1674027210	0.544393203335045	-0.186454445205664
1692027180	0.4710952204097	-0.276793651996184
1710027150	0.498336579043976	-0.483450963977211
1728027120	0.599422126433329	-0.480307718599801
1746027090	0.618579308906743	-0.328358003785142
1764027060	0.622841536697015	-0.22321762010244
1782027030	0.584895251082026	-0.204119888443239
1800027000	0.492249124024632	-0.289240506647374
1818026970	0.465441067799668	-0.448405588852793
1836026940	0.554822672364246	-0.427788979400588
1854026910	0.61368775258344	-0.308028445100196
1872026880	0.627788312604829	-0.245823941154259
1890026850	0.586940734965084	-0.25406022728248
1908026820	0.508505812959976	-0.330795794786272
1926026790	0.494275620273791	-0.4089857152877
1944026760	0.561892423002069	-0.372996544578491
1962026730	0.618661114897915	-0.300762878969823
1980026700	0.627555170893066	-0.269428955124036
1998026670	0.588536133022177	-0.284308269418545
2016026640	0.528684123385274	-0.338566304424861
2034026610	0.521944565689359	-0.373222661040608
2052026580	0.578112165571243	-0.343945890859995
2070026550	0.629406132165854	-0.300967831107083
2088026520	0.634672557161758	-0.279605397373479
2106026490	0.594468845709623	-0.292788783650368
2124026460	0.541330724502266	-0.329177353365046
2142026430	0.539338256442666	-0.35273184531737
2160026400	0.600046130259621	-0.333285443740813
2178026370	0.642965714212711	-0.294920632606516
2196026340	0.637601087991031	-0.277893544105035
2214026310	0.591344492306122	-0.290850495439067
2232026280	0.546551302374712	-0.32281750786057
2250026250	0.56435208259854	-0.342621632821391
2268026220	0.618905322007828	-0.319129596706076
2286026190	0.647051123692098	-0.284735600606957
2304026160	0.628295979356616	-0.271450512992555
2322026130	0.582180834027629	-0.28954903080103
2340026100	0.551713166515833	-0.322426307997618
2358026070	0.579347530016313	-0.333098981501022
2376026040	0.624179555246764	-0.304739194010304
2394026010	0.634316212746316	-0.274590473066348
2412025980	0.610301830183143	-0.270595179093669
2430025950	0.569083791607478	-0.294689395534961
2448025920	0.554131376944313	-0.322550615667316
2466025890	0.580861758030831	-0.320719729858961
2484025860	0.609861980045442	-0.294102179336483
2502025830	0.613240280090724	-0.27550138972116
2520025800	0.58965349656888	-0.28183690913687
2538025770	0.561128406915269	-0.300803360426642
2556025740	0.5506428522143	-0.314790189723185
2574025710	0.567235594511133	-0.307099223978154
2592025680	0.586314513619068	-0.290996747009839
2610025650	0.587103661173414	-0.28597743857427
2628025620	0.567398753797178	-0.293168501454781
2646025590	0.539977597575653	-0.303408562071937
2664025560	0.528021921925302	-0.305746523885836
2682025530	0.537775286098934	-0.303694697076971
2700025500	0.556535747157463	-0.300943442119139
2718025470	0.559403181749111	-0.298553237053016
2736025440	0.541638215465218	-0.298270248526126
2754025410	0.510464304008226	-0.299981308193461
2772025380	0.493395889132666	-0.303639512976231
2790025350	0.504225138837313	-0.313441675514038
2808025320	0.521770021749026	-0.314173647646398
2826025290	0.522551800909409	-0.307593260622286
2844025260	0.498240838374695	-0.29826382785913
2862025230	0.466485544685619	-0.302347156780388
2880025200	0.45655792844605	-0.317447092669599
2898025170	0.468609608194912	-0.327365938263766
2916025140	0.485284872421148	-0.321769457656101
2934025110	0.477354224730594	-0.31126880893067
2952025080	0.453243003779825	-0.30682970026475
2970025050	0.429940750865819	-0.322008631713798
2988025020	0.435104545655318	-0.334535455213134
3006024990	0.452209532288136	-0.33248166551109
3024024960	0.452436890484112	-0.323729358031861
3042024930	0.435118993229779	-0.319876214914599
3060024900	0.415695800960198	-0.328086415076161
3078024870	0.416285401504519	-0.343168522564447
3096024840	0.427990865366826	-0.342770206577829
3114024810	0.431050769263376	-0.333324923762087
3132024780	0.422867248120299	-0.329526646153668
3150024750	0.414815989808798	-0.342138036945937
3168024720	0.412688473851928	-0.352482656134873
3186024690	0.423034692957866	-0.349688770162384
3204024660	0.425313609125442	-0.339190860134761
3222024630	0.417822830566362	-0.339809750068587
3240024600	0.413691506500409	-0.350611830575149
3258024570	0.424248432498659	-0.362245481549739
3276024540	0.43765766004049	-0.356716288974891
3294024510	0.439675252151667	-0.342511181399558
3312024480	0.436246487818718	-0.339812252618237
3330024450	0.429491010269683	-0.350343744159081
3348024420	0.437404474380538	-0.368692578112033
3366024390	0.454133725455053	-0.365004577279565
3384024360	0.465578823055869	-0.347082343829485
3402024330	0.464341976465171	-0.336330382970239
3420024300	0.458558602679815	-0.344520887549282
3438024270	0.45901963773229	-0.359393563030862
3456024240	0.473070839132376	-0.361641387308823
3474024210	0.484792789098871	-0.347531930512524
3492024180	0.493552991682054	-0.336936350703868
3510024150	0.491566670827352	-0.335658015686082
3528024120	0.488666440773924	-0.346740081104039
3546024090	0.492300376192695	-0.353091199945194
3564024060	0.505542241165514	-0.346642964818209
3582024030	0.518647949122184	-0.335153085958078
3600024000	0.528556143331723	-0.328219761618313
3618023970	0.527294484342547	-0.328429440670167
3636023940	0.520132607001549	-0.332711438267454
3654023910	0.516793848369295	-0.335159282415642
3672023880	0.528970347657654	-0.332987456930879
3690023850	0.548477763015658	-0.325089395413596
3708023820	0.556221885909034	-0.317198680546276
3726023790	0.552488128667339	-0.31219218231756
3744023760	0.537028625719009	-0.312458895806953
3762023730	0.532276019341409	-0.318978266340587
3780023700	0.547174654912366	-0.322211727204164
3798023670	0.565628641383258	-0.314971618626551
3816023640	0.570602405240061	-0.30149719076187
3834023610	0.557492922429682	-0.295306618916593
3852023580	0.54055895151744	-0.29933998779993
3870023550	0.54217295051583	-0.310598894934641
3888023520	0.558359744727155	-0.315778948456195
3906023490	0.574526670642612	-0.301764886367677
3924023460	0.568041258951987	-0.284730248526436
3942023430	0.549288590873824	-0.281812105212798
3960023400	0.529903205363797	-0.296725926633845
3978023370	0.530535771671163	-0.309888093745025
3996023340	0.544698123376884	-0.306734713413441
4014023310	0.553821947540912	-0.289738550775926
4032023280	0.547198345955428	-0.279010072844602
4050023250	0.528752016419589	-0.280156518125808
4068023220	0.510896249880495	-0.296837866703084
4086023190	0.507856729029768	-0.306481326852028
4104023160	0.519645925924819	-0.300782750359671
4122023130	0.528298157422327	-0.285002642761676
4140023100	0.522268615199938	-0.276245052957559
4158023070	0.495370113328783	-0.281237802052949
4176023040	0.467584873849091	-0.293640979661518
4194023010	0.461625048727572	-0.305864372539214
4212022980	0.47642781184352	-0.301482814104679
4230022950	0.488357675034014	-0.289212669104968
4248022920	0.478854961636682	-0.282045733028981
4266022890	0.440854065980683	-0.282859290330165
4284022860	0.405771086749332	-0.293793809351071
4302022830	0.403049782784386	-0.308708027934464
4320022800	0.424930042420166	-0.308507165703768
4338022770	0.438659377401915	-0.296680925549807
4356022740	0.415050940003948	-0.285977532567415
4374022710	0.366910989365079	-0.285430860533837
4392022680	0.332424871703654	-0.304450677796447
4410022650	0.348305540397308	-0.328804151930282
4428022620	0.379376140133787	-0.325661973405355
4446022590	0.382694310960628	-0.30587214183368
4464022560	0.344489686123045	-0.288902048916004
4482022530	0.292517536086958	-0.296384231782861
4500022500	0.276639831649249	-0.330823855022558
4518022470	0.304713622213832	-0.35291131373692
4536022440	0.3336814588829	-0.339464730350262
4554022410	0.322749955839063	-0.315196085523504
4572022380	0.278502188671706	-0.308311746322753
4590022350	0.246017137437281	-0.335389723633351
4608022320	0.254576455810971	-0.369735580219304
4626022290	0.290508456544089	-0.373528524257085
4644022260	0.306390405217528	-0.353975380928199
4662022230	0.289359162379018	-0.339051358029669
4680022200	0.259394684397482	-0.349306961741841
4698022170	0.248565278144526	-0.377506604046168
4716022140	0.271042883279466	-0.396147120027065
4734022110	0.30420144195838	-0.390845861342026
4752022080	0.322878200211065	-0.376031054794159
4770022050	0.320228017441969	-0.373819055313954
4788022020	0.303582667002571	-0.382974140941611
4806021990	0.298977812017451	-0.399249955180591
4824021960	0.319939112081698	-0.406646978959327
4842021930	0.357566995387563	-0.402163312134498
4860021900	0.385024731329235	-0.390149022060553
4878021870	0.384047806897062	-0.385493029697109
4896021840	0.36445954585959	-0.386357435545168
4914021810	0.356731994864951	-0.397195987818795
4932021780	0.388196811743021	-0.407615127893342
4950021750	0.435953701727347	-0.401834455838412
4968021720	0.457794520396492	-0.380449403548035
4986021690	0.445766190446534	-0.369816091406733
5004021660	0.419069987367757	-0.372601319894029
5022021630	0.422183549902007	-0.390778347729247
5040021600	0.473968945394515	-0.396284693346879
5058021570	0.516474843618047	-0.370277731403011
5076021540	0.51431449023171	-0.347793891329562
5094021510	0.485054295315875	-0.341770724101136
5112021480	0.467418541044785	-0.357965464047161
5130021450	0.493370308844693	-0.375238686511612
5148021420	0.539389985602314	-0.358868207030014
5166021390	0.558625530477222	-0.332903973691119
5184021360	0.541349789978598	-0.317164273722668
5202021330	0.513376086662198	-0.325522577962153
5220021300	0.509027531045293	-0.342617254959531
5238021270	0.542098453949404	-0.347212207560892
5256021240	0.568586349377167	-0.325485834252033
5274021210	0.568268545071664	-0.307284734521848
5292021180	0.545603900068674	-0.300791544959982
5310021150	0.531722929404304	-0.310060126409283
5328021120	0.536382120121239	-0.324569213757576
5346021090	0.556312358546552	-0.317774403502032
5364021060	0.561409755865696	-0.300267290503843
5382021030	0.553046812101847	-0.290114906013092
5400021000	0.542389190150881	-0.292327394242387
5418020970	0.534054559760522	-0.304775545442693
5436020940	0.534275974479081	-0.306664935724872
5454020910	0.535173655558313	-0.298844729719216
5472020880	0.535550996206584	-0.290250401075367
5490020850	0.535494242228668	-0.285535177971806
5508020820	0.529658851876973	-0.291792366752586
5526020790	0.512973653527496	-0.289587784635308
5544020760	0.495214853336164	-0.290392883930305
5562020730	0.485976547845532	-0.292233080246581
5580020700	0.495473127327509	-0.290817978018397
5598020670	0.50379089451203	-0.284292261772802
5616020640	0.493834156336631	-0.278637687719091
5634020610	0.462106013064008	-0.276444477570795
5652020580	0.431379615785835	-0.281550661448346
5670020550	0.43029608096292	-0.294817984131884
5688020520	0.451317108591464	-0.292838904558397
5706020490	0.453067968118407	-0.280646721846406
5724020460	0.418804845420781	-0.268876106139154
5742020430	0.367445832164694	-0.269456160520421
5760020400	0.344485135554862	-0.29087479327705
5778020370	0.364222905954289	-0.303910995567234
5796020340	0.383703007974955	-0.295389194058859
5814020310	0.362844161578348	-0.272986924127041
5832020280	0.309671430915515	-0.263001660264983
5850020250	0.268609643537871	-0.28528572924513
5868020220	0.274054880831066	-0.312430512998065
5886020190	0.305517284144689	-0.314779509008624
5904020160	0.301607917760278	-0.290363191292948
5922020130	0.257820849465784	-0.271220213174653
5940020100	0.206338885826412	-0.283572434123282
5958020070	0.19444768668413	-0.318929706764228
5976020040	0.220047234165633	-0.333577640585703
5994020010	0.230530626567218	-0.314419496712936
6012019980	0.201453751733527	-0.297504214700911
6030019950	0.160678881201013	-0.3068323841118
6048019920	0.152050938265371	-0.342149771882559
6066019890	0.172891059456896	-0.357598776257835
6084019860	0.17905764896233	-0.346231069308782
6102019830	0.164212642460146	-0.338815194328306
6120019800	0.146401112147042	-0.355810159271171
6138019770	0.148366106901423	-0.382800280261933
6156019740	0.169196578523919	-0.391909385488295
6174019710	0.176933974078093	-0.385947285915327
6192019680	0.172918288114258	-0.389026031039387
6210019650	0.182756484751363	-0.408351914281822
6228019620	0.209251347484516	-0.426637943840892
6246019590	0.230112793329845	-0.423164600382728
6264019560	0.226389257276491	-0.410484076211605
6282019530	0.218906909948643	-0.42014437704687
6300019500	0.239526467803831	-0.442957604170896
6318019470	0.284992197113895	-0.451673721385013
6336019440	0.314888749386694	-0.438778574048606
6354019410	0.306859980829539	-0.421385004460029
6372019380	0.29532028521222	-0.425858433378901
6390019350	0.321809389842447	-0.44840666859482
6408019320	0.379401041263374	-0.448223968120302
6426019290	0.407967094200982	-0.424728343506452
6444019260	0.39630106320405	-0.404801154834542
6462019230	0.370612381427213	-0.406654685686896
6480019200	0.385046159447433	-0.428078832429887
6498019170	0.439583398444524	-0.427993143065694
6516019140	0.481164244646053	-0.404193554977995
6534019110	0.480330904258773	-0.380970710416063
6552019080	0.454234277415826	-0.377145761034434
6570019050	0.443164199173196	-0.393289176659342
6588019020	0.473666855512097	-0.400401690294483
6606018990	0.514521840218566	-0.386171264060883
6624018960	0.528078449945433	-0.360560958258745
6642018930	0.509783352861343	-0.349942459868886
6660018900	0.496353170995668	-0.358125423079878
6678018870	0.507132720372767	-0.373230732668837
6696018840	0.532785979387141	-0.360489974702922
6714018810	0.54432123556293	-0.340459157527325
6732018780	0.534631574058027	-0.330549956083469
6750018750	0.523487279558679	-0.335354379074728
6768018720	0.527296539724267	-0.341544568330618
6786018690	0.53921750787697	-0.335425186343974
6804018660	0.543295539869987	-0.323047349969337
6822018630	0.534458896336256	-0.317077999659553
6840018600	0.52930976705308	-0.31933178593958
6858018570	0.532881675438479	-0.324527334922263
6876018540	0.536580080311501	-0.319555010325312
6894018510	0.533510886702187	-0.307350716662444
6912018480	0.51910125651942	-0.300885204203588
6930018450	0.511480011064252	-0.310885796997767
6948018420	0.519976422673338	-0.314425298030003
6966018390	0.527586569217663	-0.305396888794728
6984018360	0.519229631005028	-0.290957590912376
7002018330	0.492828960388392	-0.284453824398649
7020018300	0.468064569067229	-0.294939326033119
7038018270	0.470621320062954	-0.312745670770383
7056018240	0.4878253115078	-0.30609383317789
7074018210	0.484212374016546	-0.287892928853701
7092018180	0.451373565553622	-0.276185386481801
7110018150	0.414094729490974	-0.281477957293099
7128018120	0.405020199412085	-0.303259575152643
7146018090	0.422227273463576	-0.311282065207688
7164018060	0.430196902815934	-0.290787201373967
7182018030	0.406556663988166	-0.270974646086996
7200018000	0.360603929461895	-0.269150776621874
7218017970	0.331885087603307	-0.288001808930762
7236017940	0.337754617349083	-0.304856072108658
