!Keysight Technologies N9917A: A.12.46
!Date: Thursday, 16 November 2023 19:03:30
!TimeZone: (UTC-03:00) Buenos Aires!Model: N9917A
!Serial: MY56072049
!GPS Latitude: 
!GPS Longitude: 
!GPS TimeStamp: 0001-01-01 00:00:00Z
!GPS Seconds Since Last Read: 0
!CHECKSUM:0122607078
!Correction: S11(Rdy)
!S1P File: Measurement: S11:
# Hz S DB R 50
30000	-0.0138165112487642	-6.08126081549839
90029850	-0.364139093324111	-8.12739628049395
180029700	-0.556684448522516	-11.5858498956095
270029550	-0.719446321214511	-18.1364585656681
360029400	-0.876335072006059	-25.5161468811843
450029250	-0.968806382403295	-33.8140787956123
540029100	-1.011034000393	-40.4612007963234
630028950	-1.01594455291546	-45.9852460729614
720028800	-1.00321246532312	-50.3939919825763
810028650	-1.01625287313723	-54.7075575875161
900028500	-1.12411723070415	-59.4066212903115
990028350	-1.32526875175095	-63.8082449654816
1080028200	-1.5855416147632	-68.1461369261713
1170028050	-1.89428902128116	-71.9662629978283
1260027900	-2.23375181471241	-75.8259994131474
1350027750	-2.60437015350543	-79.9105297992651
1440027600	-2.89017108239915	-83.3428768021838
1530027450	-2.56361732819936	-85.4667607828259
1620027300	-1.91760249855407	-91.7043711522088
1710027150	-2.24741024646326	-96.8579440386279
1800027000	-2.83751037823784	-94.352470980417
1890026850	-2.91969275072608	-89.6264020827182
1980026700	-2.63545986787039	-88.5518170807528
2070026550	-2.34121749379353	-92.0126042539541
2160026400	-2.17435219350996	-98.9438562413749
2250026250	-2.21844665060093	-105.714676027489
2340026100	-2.42081615851183	-110.661890926341
2430025950	-2.64721138567961	-112.186204402225
2520025800	-2.83671824071368	-111.537262072046
2610025650	-2.89587174971235	-111.267028286144
2700025500	-2.87658064295416	-112.864508174741
2790025350	-2.82391686746827	-116.478922041793
2880025200	-2.86237737848363	-120.461096224351
2970025050	-2.97079302810117	-123.385467161862
3060024900	-3.10296108060855	-124.887797357376
3150024750	-3.20460371110195	-124.874578169494
3240024600	-3.26198631379055	-125.00440252044
3330024450	-3.30277537358808	-125.602751206407
3420024300	-3.37158380176165	-127.004257606233
3510024150	-3.45391243729104	-128.516786455665
3600024000	-3.58909691981713	-129.699971374325
3690023850	-3.68220888005328	-129.987084614235
3780023700	-3.69455117898372	-131.471110979681
3870023550	-3.69161731662393	-133.050902356926
3960023400	-3.67185090386253	-135.53309343243
4050023250	-3.72940262805393	-137.435184072369
4140023100	-3.86653085235929	-137.762382929008
4230022950	-4.00678621752622	-136.702407154137
4320022800	-3.98536879076672	-134.905418862736
4410022650	-3.81540752035774	-134.627113597423
4500022500	-3.70926312195269	-135.946549306636
4590022350	-3.7128965104781	-139.070307800884
4680022200	-3.82516283799135	-140.781905758684
4770022050	-4.04378187888293	-141.639796407263
4860021900	-4.20718833331826	-140.963653057176
4950021750	-4.21258246762545	-140.454596814334
5040021600	-4.12143401549653	-140.387059632286
5130021450	-3.99110770718879	-142.001926852521
5220021300	-3.97584173341951	-144.847956050674
5310021150	-3.97749152193577	-146.731167355528
5400021000	-4.08974333361354	-148.384726361425
5490020850	-4.1728735344621	-148.129248473134
5580020700	-4.24592382155723	-147.897216613504
5670020550	-4.2841119228411	-145.046526149665
5760020400	-4.21654352963629	-144.462827577045
5850020250	-4.13940722188336	-145.14362971347
5940020100	-4.03065061203931	-146.410222565978
6030019950	-4.08338475087451	-149.442879149205
6120019800	-4.27063670732819	-150.915768704275
6210019650	-4.41305456922422	-151.690926707909
6300019500	-4.52994310247452	-149.914222779749
6390019350	-4.52011367701979	-149.026256632748
6480019200	-4.45387533925737	-148.361731932935
6570019050	-4.33231304666587	-150.181512224563
6660018900	-4.30415553874474	-152.954263255569
6750018750	-4.47530380139494	-155.725772891841
6840018600	-4.67793913531413	-155.584101332135
6930018450	-4.84970928993386	-153.533182466738
7020018300	-4.79093750365542	-150.69898520396
7110018150	-4.7004417940861	-149.830612616972
7200018000	-4.56666611986563	-151.493233848589
7290017850	-4.55948967444652	-154.664753064861
7380017700	-4.69208766231392	-158.02184134661
7470017550	-4.92786103724191	-159.312793664114
7560017400	-5.13022123257203	-158.020088824536
7650017250	-5.0520128864501	-156.254960447241
7740017100	-4.9003094718228	-155.648148287953
7830016950	-4.77069000900127	-156.259786523978
7920016800	-4.76187982276851	-159.219474370283
8010016650	-4.90407045836222	-160.453902646924
8100016500	-5.05782657137652	-161.541329462591
8190016350	-5.18053491186323	-159.626136982555
8280016200	-5.24512109794005	-154.759347872427
8370016050	-5.13404770881668	-152.49846976221
8460015900	-5.03592841982223	-152.580578577823
8550015750	-5.11636197255813	-155.494085015813
8640015600	-5.27979901076309	-157.648098067637
8730015450	-5.63199897167783	-159.00897027627
8820015300	-5.85110000577938	-157.299533342972
8910015150	-5.8025201493085	-156.042207601591
9000015000	-5.57809758169689	-156.821494997736
9090014850	-5.37151220868393	-160.571804102674
9180014700	-5.33171693999877	-164.47945887573
9270014550	-5.47409631455197	-166.194625284059
9360014400	-5.66923318274017	-164.530400758027
9450014250	-5.78320576463936	-158.600478422301
9540014100	-5.60463402303094	-153.70847553162
9630013950	-5.32891432078451	-152.498574699803
9720013800	-5.08807303549963	-154.677967949329
9810013650	-5.27987136743127	-158.779097888631
9900013500	-5.88490114330991	-159.261992897479
9990013350	-6.43192907948724	-156.523448966729
10080013200	-6.57770074677776	-152.022409778265
10170013050	-6.2190746133664	-151.099427782496
10260012900	-5.72892733362647	-156.290718690954
10350012750	-5.50482780977079	-164.275071589275
10440012600	-5.65508156222199	-172.171147903804
10530012450	-6.07857904493841	-173.843763547958
10620012300	-6.4024118240935	-168.899091297257
10710012150	-6.099176221329	-158.836696143513
10800012000	-5.48283186717926	-152.123959701158
10890011850	-5.11913246897111	-152.069413890975
10980011700	-5.20400852643347	-154.974133002438
11070011550	-5.5866809906356	-158.090742759368
11160011400	-6.22095170454381	-156.56579507879
11250011250	-6.81949911926276	-150.153263060776
11340011100	-6.8539880494685	-143.814274991663
11430010950	-6.43001736173597	-142.483265024419
11520010800	-6.01105780387656	-149.197445026402
11610010650	-5.78939076785267	-159.261227459498
11700010500	-5.96629204711765	-169.366593515373
11790010350	-6.2685706707642	-175.582332774064
11880010200	-6.60603433265021	-174.911195629849
11970010050	-6.46784682158393	-167.280610552814
12060009900	-5.90028838259212	-160.59370787504
12150009750	-5.37237007786796	-158.396426650244
12240009600	-5.16453225639226	-160.459700209663
12330009450	-5.50494518393479	-161.967538282826
12420009300	-6.12336561224159	-160.256038194549
12510009150	-6.69960633150133	-154.021347246688
12600009000	-6.86943251148655	-146.985869749086
12690008850	-6.69867891076525	-146.064836477313
12780008700	-6.6162588765385	-149.701555008389
12870008550	-6.74543324131334	-156.648530727862
12960008400	-7.06062920340423	-162.788387537637
13050008250	-7.42238517828995	-167.329141582345
13140008100	-7.67065724634434	-166.542176630567
13230007950	-7.2893634031577	-165.035137567396
13320007800	-6.7052647028154	-163.371865889161
13410007650	-6.23063131094013	-165.932634727748
13500007500	-6.4521665352143	-168.845860905214
13590007350	-7.04912257143882	-167.742622953857
13680007200	-7.27279737612562	-159.37175236298
13770007050	-6.94746910884691	-152.099768025256
13860006900	-6.49707160593486	-148.962554029338
13950006750	-6.33598260325322	-153.811564739637
14040006600	-6.6255009009673	-160.015815391702
14130006450	-7.36840574672423	-162.951013957848
14220006300	-8.3648141501214	-162.250167216713
14310006150	-8.72678444650167	-155.370655129891
14400006000	-8.33408307689846	-149.311162468754
14490005850	-7.38249352133741	-150.179726123708
14580005700	-6.80763929350276	-159.133311830218
14670005550	-6.78652394058491	-169.219883301188
14760005400	-7.44531161937776	-178.680252408136
14850005250	-8.74347854245681	179.779922331037
14940005100	-9.58259703217727	-168.731503964845
15030004950	-9.1076539366274	-155.447401916493
15120004800	-7.74475921969769	-151.149231317936
15210004650	-6.95034849466396	-155.126252616242
15300004500	-6.83456891414106	-163.245841573272
15390004350	-7.49145152933971	-169.241654623787
15480004200	-8.7640853945903	-170.014616812779
15570004050	-9.72717660379977	-153.211351725229
15660003900	-9.05910123890344	-139.376003323152
15750003750	-7.74246051365336	-134.271989717575
15840003600	-6.94498609309064	-140.19184004621
15930003450	-6.90232122772311	-149.97541069612
16020003300	-7.49441173770661	-157.403052949257
16110003150	-8.86325058897837	-163.442298765013
16200003000	-9.72022995671928	-156.400830575324
16290002850	-9.21048351661642	-146.731572363555
16380002700	-7.89096825889203	-143.687622081953
16470002550	-7.05984328353764	-149.811550225098
16560002400	-6.79447399998826	-155.91675971623
16650002250	-7.08524156304331	-161.09996032489
16740002100	-7.7204197989282	-161.848746322588
16830001950	-8.17786614729033	-155.583617853456
16920001800	-7.783174797964	-146.4989767027
17010001650	-7.37813343487774	-143.103963063149
17100001500	-6.94285875971223	-143.030398461414
17190001350	-7.18393258061342	-145.873852131551
17280001200	-7.62621843053395	-149.455356292063
17370001050	-8.29928450394649	-149.676177877866
17460000900	-8.65130578203187	-148.137121412614
17550000750	-8.42231106661354	-145.714912107822
17640000600	-8.00929045831961	-148.66982385069
17730000450	-7.66869835794146	-153.420591597574
17820000300	-7.9588948933435	-158.370002560891
17910000150	-8.34067843791507	-158.284590203069
18000000000	-8.57862038900059	-154.62474436329
