!Keysight Technologies N9917A: A.12.46
!Date: Thursday, 16 November 2023 19:11:54
!TimeZone: (UTC-03:00) Buenos Aires!Model: N9917A
!Serial: MY56072049
!GPS Latitude: 
!GPS Longitude: 
!GPS TimeStamp: 0001-01-01 00:00:00Z
!GPS Seconds Since Last Read: 0
!CHECKSUM:1789246397
!Correction: S11(Rdy)
!S1P File: Measurement: S11:
# Hz S RI R 50
30000	0.99258023246798	-0.106109192851552
90029850	0.952017403579843	-0.0267006161878415
180029700	0.936803563678999	-0.000244561576894654
270029550	0.920071908383118	-0.0274690895889177
360029400	0.907126208032615	-0.0722046692307172
450029250	0.901215144783141	-0.121417720815738
540029100	0.897347095859162	-0.151109368242652
630028950	0.896302742859305	-0.175899691274004
720028800	0.889847844597078	-0.191457305155535
810028650	0.87489662460798	-0.20804589173837
900028500	0.853943004421593	-0.220970628620926
990028350	0.836725025316418	-0.213966976517129
1080028200	0.827162549385529	-0.19577369252262
1170028050	0.825524345131242	-0.172937746636784
1260027900	0.831356716932243	-0.148646725492373
1350027750	0.84153266715488	-0.134005786121469
1440027600	0.863640075930352	-0.128767920857871
1530027450	0.850344818142942	-0.153836782121567
1620027300	0.734856448250411	-0.113214813390104
1710027150	0.69622660078042	0.0308235925523033
1800027000	0.752053627321608	0.0912819397749849
1890026850	0.815560710844749	0.0459814671065056
1980026700	0.845558135495469	-0.0540458592039568
2070026550	0.842097127033505	-0.151703009736017
2160026400	0.824656920321203	-0.198542785868145
2250026250	0.815607882270615	-0.178823640618677
2340026100	0.819453033213749	-0.115024183680895
2430025950	0.828512786965351	-0.0599663130845668
2520025800	0.836267945695485	-0.0439287027183567
2610025650	0.838767498619325	-0.0707956157667956
2700025500	0.830833603430237	-0.110882702802271
2790025350	0.821022368836633	-0.13980349276908
2880025200	0.811681334578014	-0.144178646771282
2970025050	0.809231822504962	-0.140434730037354
3060024900	0.811937048640005	-0.123417975954601
3150024750	0.81317409133279	-0.114260940479728
3240024600	0.812020707671191	-0.116176314089318
3330024450	0.803934424225706	-0.125803333434785
3420024300	0.801148531174615	-0.124169799611888
3510024150	0.797549285078709	-0.122947000851997
3600024000	0.801030791721598	-0.113898992278673
3690023850	0.805858485422242	-0.118318723913381
3780023700	0.803220839552635	-0.118535860613642
3870023550	0.800448580712407	-0.115274740839176
3960023400	0.790145341697243	-0.112318357226112
4050023250	0.788960042693107	-0.0972722444131762
4140023100	0.789046054727243	-0.090326050049989
4230022950	0.793521915108107	-0.092428091982568
4320022800	0.79203372359341	-0.12434577457531
4410022650	0.780755241547982	-0.156719669959373
4500022500	0.772765180170631	-0.162927151016914
4590022350	0.768873552076999	-0.135727074319684
4680022200	0.767653283523479	-0.111983918900152
4770022050	0.775721739180304	-0.0825464280864335
4860021900	0.784718539804073	-0.0878232269511648
4950021750	0.786210001474069	-0.0989847720584775
5040021600	0.78092668805277	-0.125323558499402
5130021450	0.772576022034369	-0.131955154395182
5220021300	0.767782106906855	-0.117958698396464
5310021150	0.762758364372956	-0.105415364886178
5400021000	0.761071592961984	-0.0891025419836985
5490020850	0.763056713632412	-0.0877476813979807
5580020700	0.761229963801076	-0.0949720061377079
5670020550	0.759418661540712	-0.123025898187858
5760020400	0.750529745394233	-0.141920953821387
5850020250	0.744275244636931	-0.14563852840149
5940020100	0.737968081530163	-0.154380334451792
6030019950	0.733862193277763	-0.12434076841711
6120019800	0.740320782751793	-0.097595932541119
6210019650	0.748219124748403	-0.0825634406044456
6300019500	0.752968992080279	-0.0945655683597285
6390019350	0.750023962701714	-0.114786414289097
6480019200	0.742969454300276	-0.134458352929161
6570019050	0.734314036686482	-0.136340737278404
6660018900	0.728896674471885	-0.125016361930659
6750018750	0.73155125611915	-0.0887083790481695
6840018600	0.737509699466038	-0.0777372747227049
6930018450	0.740107083336256	-0.0893044140564458
7020018300	0.735503111454943	-0.120122483367312
7110018150	0.726491673634896	-0.136496118981677
7200018000	0.715261336675962	-0.13414697934616
7290017850	0.710177605286933	-0.108276549436139
7380017700	0.715135532273067	-0.0666687912599792
7470017550	0.721968599660818	-0.0382472248635537
7560017400	0.728635713578992	-0.0392275111124362
7650017250	0.725804728273053	-0.0629685767753889
7740017100	0.718510581207367	-0.0855768536944727
7830016950	0.70991292916833	-0.101565861835869
7920016800	0.708396760749744	-0.0797146358366286
8010016650	0.714046007870626	-0.0605018110112169
8100016500	0.71997424641815	-0.0444391511625873
8190016350	0.720041823554387	-0.0602468161022159
8280016200	0.716297572474119	-0.103498641213775
8370016050	0.703134711006123	-0.136477223226467
8460015900	0.694908951912562	-0.143340631238707
8550015750	0.69228568950793	-0.114702476967242
8640015600	0.695939535293085	-0.0815778606161759
8730015450	0.706468473080327	-0.039059136432234
8820015300	0.712209790310367	-0.0401460428034308
8910015150	0.710243274409351	-0.0535907686216282
9000015000	0.700749005568701	-0.0594961506683713
9090014850	0.685892005556921	-0.0332942070382898
9180014700	0.676602959074522	0.00244473147700885
9270014550	0.677490381923374	0.0207710610991369
9360014400	0.687104021396244	0.00261217301634092
9450014250	0.696035443825553	-0.0577317548256703
9540014100	0.69036194357297	-0.116608635520626
9630013950	0.675490264385881	-0.150628566030901
9720013800	0.658838461190135	-0.144556419062224
9810013650	0.657370754515485	-0.0816002991910371
9900013500	0.668992061218074	-0.0341799015240321
9990013350	0.684490581212044	-0.0277853024822773
10080013200	0.690588561264377	-0.0562063332001823
10170013050	0.676275543685375	-0.0836512387936911
10260012900	0.652920250906548	-0.0604467745304865
10350012750	0.633726295116382	0.0108624155324366
10440012600	0.627922904511119	0.0921795396279868
10530012450	0.643832609551924	0.106540085362262
10620012300	0.66320000127795	0.0580087681692315
10710012150	0.657208340346245	-0.0417084836725798
10800012000	0.624787664825476	-0.11583679968139
10890011850	0.601371754135424	-0.15043833984327
10980011700	0.599056805633944	-0.139981023694871
11070011550	0.624007604495132	-0.0878311847160558
11160011400	0.647083302239049	-0.0358369860603206
11250011250	0.663775772965374	-0.0321139192612879
11340011100	0.661929023649835	-0.0683357852948429
11430010950	0.648466329814518	-0.0878668968308871
11520010800	0.624479728693282	-0.0642368190428798
11610010650	0.608009773136143	0.00849297502063856
11700010500	0.602633013710851	0.124608100205788
11790010350	0.607953275856373	0.186122620755381
11880010200	0.62606188071307	0.181213284484857
11970010050	0.636001394523576	0.100215101213458
12060009900	0.635680702477608	0.0239993567469585
12150009750	0.615392156318973	-0.0250867235258859
12240009600	0.601470224352359	-0.0293817615202263
12330009450	0.610036798675602	-0.0108398814499669
12420009300	0.632985284378324	0.00104174727148049
12510009150	0.652474824470856	-0.0207873651157801
12600009000	0.656283075747323	-0.0510030138127607
12690008850	0.644254258226163	-0.0701733215743482
12780008700	0.63208674033789	-0.0370909138308249
12870008550	0.62538132612597	0.0301497741863142
12960008400	0.628314014900538	0.0971248649078593
13050008250	0.640250644831984	0.139675819245208
13140008100	0.651257694110471	0.136296793196288
13230007950	0.640295730402717	0.115225932071992
13320007800	0.6292342598467	0.0856683352866521
13410007650	0.616434698570307	0.0999765666755587
13500007500	0.615760699384021	0.121796937432124
13590007350	0.641259742858949	0.112083441105817
13680007200	0.665537007898878	0.0411083897037568
13770007050	0.659993887807515	-0.0262138965089195
13860006900	0.635480913183113	-0.0710840913624599
13950006750	0.614561660590459	-0.0445909111573708
14040006600	0.618109746454646	0.0246049016284938
14130006450	0.637665575659668	0.081455724002732
14220006300	0.663056525749028	0.110771287241776
14310006150	0.682525329811972	0.0725439619628365
14400006000	0.676882443400629	0.0148846178217357
14490005850	0.646722813357459	-0.0160697870118013
14580005700	0.613409348809511	0.0317753301808646
14670005550	0.595247310998231	0.130225787172513
14760005400	0.608174651322363	0.220848760186173
14850005250	0.649552831591895	0.229549207681661
14940005100	0.688936318826696	0.149470840633614
15030004950	0.694268608598825	0.0531774247049237
15120004800	0.669314399859134	-0.0199768081057765
15210004650	0.635581078588664	-0.0213459940866828
15300004500	0.626202993220389	0.0378130378959451
15390004350	0.643114290403401	0.0978866083902633
15480004200	0.683807711372979	0.124421261011236
15570004050	0.721399738432124	0.049289624741628
15660003900	0.720634145530347	-0.0359091422777207
15750003750	0.689336085821171	-0.121112245746497
15840003600	0.645825832398128	-0.114987353104295
15930003450	0.618874326376757	-0.0419015516892038
16020003300	0.626414349863353	0.0400906755927379
16110003150	0.660322008803885	0.128942886260239
16200003000	0.689051015020251	0.0961219163678172
16290002850	0.695812485171402	0.0278775099461052
16380002700	0.674720877304066	-0.0323942921669849
16470002550	0.624851410678598	-0.0168990932716395
16560002400	0.605771508029784	0.0143950463089311
16650002250	0.622593088560358	0.051766848613414
16740002100	0.649968141633638	0.0722711828627868
16830001950	0.673410460807109	0.0328722179860439
16920001800	0.677036492095554	-0.0318621358807882
17010001650	0.661263264255219	-0.0634675968920131
17100001500	0.62694717705007	-0.0711639458684021
17190001350	0.61625526325404	-0.0207579449649377
17280001200	0.621485805418096	0.0310165425041813
17370001050	0.642449296796637	0.0613119405333259
17460000900	0.651515939508411	0.0684270849383834
17550000750	0.646555279788429	0.0538453099868874
17640000600	0.62512152515293	0.0689093141854083
17730000450	0.596353854322203	0.0964267964894737
17820000300	0.595253242090577	0.138709876681111
17910000150	0.612669873714712	0.143240428904337
18000000000	0.632940751038827	0.115730543203213
