!Keysight Technologies N9917A: A.12.46
!Date: Thursday, 16 November 2023 19:14:52
!TimeZone: (UTC-03:00) Buenos Aires!Model: N9917A
!Serial: MY56072049
!GPS Latitude: 
!GPS Longitude: 
!GPS TimeStamp: 0001-01-01 00:00:00Z
!GPS Seconds Since Last Read: 0
!CHECKSUM:1685240781
!Correction: S11(Rdy)
!S1P File: Measurement: S11:
# Hz S RI R 50
30000	0.992226660793992	-0.105435570654588
90029850	0.95324219034612	-0.0565800234591193
180029700	0.924328217630601	-0.039888559476557
270029550	0.897884585889884	-0.0768471744787862
360029400	0.871982778484349	-0.121932842079602
450029250	0.851118234018244	-0.173006477037411
540029100	0.837247940441437	-0.201625639235789
630028950	0.828514225770444	-0.222777750247961
720028800	0.819151434317903	-0.238917252786739
810028650	0.803521804136735	-0.25272366691723
900028500	0.779996205423519	-0.26374739147491
990028350	0.759941391028674	-0.2570057604475
1080028200	0.747356709371234	-0.238301592060477
1170028050	0.744055522627897	-0.216260655893695
1260027900	0.746415115833074	-0.193350543128065
1350027750	0.755694980273851	-0.17986668115813
1440027600	0.774604868696201	-0.176825748428424
1530027450	0.765652795065831	-0.208536007174019
1620027300	0.658490395737952	-0.18414413586489
1710027150	0.61855950477238	-0.0470802704769198
1800027000	0.676392099812517	0.0195864707618381
1890026850	0.740318960680487	-0.0195524761296607
1980026700	0.765826064318923	-0.11112089111383
2070026550	0.757100207599548	-0.203590084989865
2160026400	0.731554988505259	-0.250363439768565
2250026250	0.717677379688415	-0.236791851050852
2340026100	0.719881600675829	-0.183161896877213
2430025950	0.73449174343294	-0.132134567117345
2520025800	0.746965722464868	-0.116889617860988
2610025650	0.749525691607204	-0.138900919173958
2700025500	0.73940100447226	-0.177803653013154
2790025350	0.722693928682071	-0.206786167536754
2880025200	0.710142896917424	-0.217254828826187
2970025050	0.704007615139882	-0.212833525040111
3060024900	0.705200183208272	-0.197673869658865
3150024750	0.711833731617483	-0.191779981563541
3240024600	0.711369991648934	-0.191461230361782
3330024450	0.704543961653553	-0.19956755471766
3420024300	0.70159934442469	-0.199813613695698
3510024150	0.698337902653162	-0.200886042053879
3600024000	0.70235652574845	-0.193004790849835
3690023850	0.703820941215909	-0.197945103025425
3780023700	0.70247254262333	-0.20075453504293
3870023550	0.696115705652382	-0.200049072365571
3960023400	0.684877972591927	-0.200708722967407
4050023250	0.681826751509403	-0.18908150194086
4140023100	0.683001517372523	-0.180245719433005
4230022950	0.690704581758101	-0.181964269654491
4320022800	0.688338565126642	-0.212130055288001
4410022650	0.673375324519154	-0.243703690183633
4500022500	0.661638509170549	-0.250358624251515
4590022350	0.658669517887762	-0.229007186892757
4680022200	0.66108688623541	-0.209026269173521
4770022050	0.673622112918589	-0.181428404331046
4860021900	0.682475583287193	-0.184199668674639
4950021750	0.683568252231951	-0.1982621746297
5040021600	0.67700841166066	-0.224670614424552
5130021450	0.663317829139941	-0.234709278758028
5220021300	0.651494823415251	-0.22212130006339
5310021150	0.645938776900244	-0.217689855932585
5400021000	0.649619214071302	-0.201560596003643
5490020850	0.652795624371083	-0.199476593741325
5580020700	0.647545317942104	-0.203532581593562
5670020550	0.647904427849431	-0.229386209674814
5760020400	0.636074683693613	-0.247303791853475
5850020250	0.629202241245508	-0.254110425341929
5940020100	0.615469923824634	-0.264314925647905
6030019950	0.616741767588658	-0.239851736815814
6120019800	0.628431095798909	-0.216522232288338
6210019650	0.634125783025514	-0.202334795581697
6300019500	0.641816734866348	-0.211786340290191
6390019350	0.634792060008191	-0.230308517413042
6480019200	0.624091864771215	-0.251131373431842
6570019050	0.609413097021141	-0.256893412430544
6660018900	0.599970035899214	-0.251300999398492
6750018750	0.606556394740652	-0.222917214744808
6840018600	0.615999424268853	-0.210815756404253
6930018450	0.622627220538649	-0.215892510513537
7020018300	0.614908157705513	-0.241159732750103
7110018150	0.603779710877206	-0.254880102184581
7200018000	0.589053912960559	-0.259129816184385
7290017850	0.584908040746173	-0.239638803353485
7380017700	0.591895732690245	-0.206310459171808
7470017550	0.606302690214105	-0.179585560762439
7560017400	0.616348386624373	-0.180304749067987
7650017250	0.610632797331116	-0.200676387180229
7740017100	0.595611162505796	-0.226355752112727
7830016950	0.578764498809867	-0.244005690692159
7920016800	0.572060652856804	-0.23332684660458
8010016650	0.579653441657123	-0.217362483548071
8100016500	0.586381933410312	-0.205941864424984
8190016350	0.589894854068277	-0.215871142054789
8280016200	0.58520003901426	-0.246830958049906
8370016050	0.569295013538256	-0.272855064892058
8460015900	0.556196665301244	-0.280204557591619
8550015750	0.554898695680106	-0.258178038790087
8640015600	0.565301673348606	-0.228924385403551
8730015450	0.588000660951146	-0.189741189330822
8820015300	0.598879030003542	-0.1871885867675
8910015150	0.597549812229273	-0.200077757563377
9000015000	0.583239109918879	-0.212084612126728
9090014850	0.56624207174196	-0.199333539333533
9180014700	0.560451389558928	-0.173653474635365
9270014550	0.561786330665001	-0.158975621072797
9360014400	0.566818266322816	-0.171883728907808
9450014250	0.564628193886624	-0.223031970854728
9540014100	0.550209774904798	-0.275283577372493
9630013950	0.526152219026465	-0.307064588334619
9720013800	0.504240317193435	-0.305560586894179
9810013650	0.515084443304434	-0.248818695151811
9900013500	0.549834787707045	-0.194124760611948
9990013350	0.57735277632912	-0.177219975992393
10080013200	0.583295657847125	-0.197734509770098
10170013050	0.565387358668192	-0.226297287454931
10260012900	0.534433818727223	-0.218930513212773
10350012750	0.516928152823901	-0.171684048700619
10440012600	0.524977154244446	-0.107658976510623
10530012450	0.544655880529079	-0.0926200720117497
10620012300	0.552391831604896	-0.135621897478703
10710012150	0.529393262151614	-0.219209692083877
10800012000	0.480520659885546	-0.285728277148866
10890011850	0.431138630934161	-0.320001736771333
10980011700	0.43008047842333	-0.306901202044661
11070011550	0.462805061120563	-0.260892179069898
11160011400	0.513148080523527	-0.210585176731072
11250011250	0.552422069502432	-0.188456301343543
11340011100	0.554473570813545	-0.210472008224291
11430010950	0.539446856078271	-0.230355415485601
11520010800	0.509402865376142	-0.220672139261583
11610010650	0.493366499154021	-0.170314183420753
11700010500	0.506787429537093	-0.0730578070002766
11790010350	0.525381303056214	-0.0243590174831241
11880010200	0.536780451611021	-0.0389187644294639
11970010050	0.533289937662096	-0.116057259654941
12060009900	0.500538769246325	-0.194686174492288
12150009750	0.451482268823225	-0.247051937528434
12240009600	0.426717887454127	-0.257022144106251
12330009450	0.437450133802499	-0.228246970489218
12420009300	0.480517079813572	-0.205731054479558
12510009150	0.506618941637753	-0.204718875090105
12600009000	0.521895127702933	-0.218525281105835
12690008850	0.512758900646517	-0.229663049932489
12780008700	0.505295544677403	-0.209014228273026
12870008550	0.513178277043868	-0.154453642536235
12960008400	0.527177264923465	-0.0988304200712997
13050008250	0.544952099772186	-0.0606049456822272
13140008100	0.552101678538968	-0.0698020717621315
13230007950	0.537876034172302	-0.101786810112172
13320007800	0.511250218925048	-0.139086061699234
13410007650	0.479065833990379	-0.1434541260223
13500007500	0.483302696958505	-0.12275982880722
13590007350	0.507291519287934	-0.126774369196389
13680007200	0.517146095405319	-0.181987009827853
13770007050	0.500586016028047	-0.241005217934166
13860006900	0.470629564232623	-0.272818868134902
13950006750	0.44796043230084	-0.253996327566796
14040006600	0.463041109055929	-0.192400392322856
14130006450	0.501104806761457	-0.139251084868086
14220006300	0.549721154555183	-0.0984794132546602
14310006150	0.568860377188852	-0.123091774807826
14400006000	0.554229789427192	-0.17585227073146
14490005850	0.511550868498998	-0.214010555925595
14580005700	0.471563411896539	-0.18879343633214
14670005550	0.46662016869465	-0.114793649812678
14760005400	0.50533433785303	-0.0327491435159595
14850005250	0.557301310266928	-0.00908824025451296
14940005100	0.585940479811063	-0.0733157871514657
15030004950	0.574895893264303	-0.162571984933498
15120004800	0.521210752149914	-0.237416056736625
15210004650	0.470325249308027	-0.258180438072314
15300004500	0.453249112516219	-0.22131545095698
15390004350	0.485029595382592	-0.162347248303435
15480004200	0.544810938253953	-0.120805541900317
15570004050	0.584191203555684	-0.165845626893734
15660003900	0.581030231874471	-0.234419550463143
15750003750	0.534466795256756	-0.303949079057961
15840003600	0.484884255693808	-0.313872663209174
15930003450	0.460557665596741	-0.262099682538993
16020003300	0.48297051822428	-0.190205313956194
16110003150	0.545609266448682	-0.101284834246528
16200003000	0.581009483358859	-0.129650633222664
16290002850	0.585625844794517	-0.180485563529071
16380002700	0.533765791684053	-0.249226431039315
16470002550	0.479476069829788	-0.260131644036144
16560002400	0.450085345641201	-0.24345790074934
16650002250	0.460229366672884	-0.210831841549181
16740002100	0.491590924755391	-0.205951825968559
16830001950	0.511900792774487	-0.228117310022742
16920001800	0.501567411117172	-0.284242650553121
17010001650	0.479169102586809	-0.30770412176654
17100001500	0.446225029330935	-0.311969389277262
17190001350	0.449320932715328	-0.261027171199564
17280001200	0.46458101832938	-0.210765501843227
17370001050	0.500598547598265	-0.17379326363494
17460000900	0.518146383702153	-0.165060311156121
17550000750	0.516086857283084	-0.181612549176843
17640000600	0.496203266665314	-0.17603588439926
17730000450	0.472693413577399	-0.159248241470053
17820000300	0.475762347262767	-0.125687136911791
17910000150	0.49201186298466	-0.125303697706564
18000000000	0.504371056424717	-0.15184433124322
