!Keysight Technologies N9917A: A.12.46
!Date: Thursday, 16 November 2023 19:12:12
!TimeZone: (UTC-03:00) Buenos Aires!Model: N9917A
!Serial: MY56072049
!GPS Latitude: 
!GPS Longitude: 
!GPS TimeStamp: 0001-01-01 00:00:00Z
!GPS Seconds Since Last Read: 0
!CHECKSUM:2084901735
!Correction: S11(Rdy)
!S1P File: Measurement: S11:
# Hz S RI R 50
30000	0.991850272602621	-0.106097953330117
90029850	0.927544431854682	-0.0778125129435716
180029700	0.898561944487522	-0.0640077066148464
270029550	0.872959594210409	-0.10588254835207
360029400	0.847859661552688	-0.157626160830473
450029250	0.824437296248257	-0.220078718485637
540029100	0.808143372408329	-0.260173805073275
630028950	0.795307746485219	-0.292372723012456
720028800	0.782880156732888	-0.317440622024074
810028650	0.761963152138868	-0.340000079213137
900028500	0.733899974283136	-0.35789720723904
990028350	0.708566464359246	-0.359138640302244
1080028200	0.690535213258379	-0.350971206716184
1170028050	0.678187135331256	-0.337664987468224
1260027900	0.673163589680143	-0.323412569156676
1350027750	0.671957861217452	-0.320316150442227
1440027600	0.681658314156542	-0.325834935393601
1530027450	0.677852761475587	-0.367046998880627
1620027300	0.589829722679285	-0.364488146745436
1710027150	0.556730453463985	-0.250644984758498
1800027000	0.609027150770298	-0.185170381542223
1890026850	0.658328534035656	-0.212315286733168
1980026700	0.667836687385784	-0.295032159256062
2070026550	0.637901030882066	-0.38116806680218
2160026400	0.591577692880356	-0.436386446000516
2250026250	0.562781695620249	-0.438554203888688
2340026100	0.563482167753526	-0.404014818221194
2430025950	0.582395877589942	-0.364090408423878
2520025800	0.599584077436284	-0.346096610891154
2610025650	0.595990262854999	-0.363941558829226
2700025500	0.573242328170803	-0.399578789677611
2790025350	0.536225517850867	-0.430667204753238
2880025200	0.507102430492868	-0.444381619376219
2970025050	0.490777895468459	-0.443405639765124
3060024900	0.489717055155713	-0.435365426296317
3150024750	0.495222649110545	-0.429586242541912
3240024600	0.493951072161216	-0.429425967498501
3330024450	0.484777341788483	-0.437013299562706
3420024300	0.474414092959973	-0.437692499129316
3510024150	0.462504838704408	-0.43785597350675
3600024000	0.461117620057465	-0.432800821575965
3690023850	0.457824598077245	-0.43542631372751
3780023700	0.446926775988742	-0.44346199232302
3870023550	0.433000199203373	-0.445947565331225
3960023400	0.409995456707566	-0.449002475257527
4050023250	0.402774123916151	-0.437682614749176
4140023100	0.402965600920523	-0.429781618779721
4230022950	0.413063846209683	-0.426907790204041
4320022800	0.406110515431246	-0.446666252937737
4410022650	0.381919631288715	-0.470504761796924
4500022500	0.362645559935557	-0.476911466234285
4590022350	0.351524185299525	-0.464055422163234
4680022200	0.353145916252269	-0.449607683657811
4770022050	0.369616443359453	-0.428470881328974
4860021900	0.380325782264253	-0.428672703647685
4950021750	0.378460573008655	-0.437375231424744
5040021600	0.359180165222683	-0.456027974951445
5130021450	0.329434403631539	-0.466917805632205
5220021300	0.310802733597127	-0.461277174032479
5310021150	0.294074358921505	-0.452879178368233
5400021000	0.296067914911703	-0.442957914267431
5490020850	0.298958512038544	-0.437910665052852
5580020700	0.300169895915596	-0.438527197156707
5670020550	0.301950106902105	-0.449344493983368
5760020400	0.289637347832312	-0.461274275818577
5850020250	0.274634004059654	-0.466638243222231
5940020100	0.251981994888725	-0.473690270239777
6030019950	0.245023254311755	-0.458465172015047
6120019800	0.257761988725261	-0.442470876537866
6210019650	0.265431047002581	-0.433577281854638
6300019500	0.276974491203031	-0.437229723221325
6390019350	0.265535351721228	-0.449134546225758
6480019200	0.248497680066005	-0.461341533260443
6570019050	0.217911651224818	-0.463828439710108
6660018900	0.193097895557269	-0.457961149417412
6750018750	0.197718564726498	-0.437072489175429
6840018600	0.212194179885074	-0.425546726091816
6930018450	0.231987953099601	-0.427565889605014
7020018300	0.228567838682454	-0.441122152320293
7110018150	0.217964250392805	-0.448512125969841
7200018000	0.189610442269253	-0.448956766897245
7290017850	0.175014977293865	-0.437123788861017
7380017700	0.178317531016697	-0.416059958558909
7470017550	0.196540999051488	-0.400394057098521
7560017400	0.213626696563791	-0.402079463432511
7650017250	0.206551013513791	-0.413413919442901
7740017100	0.181572591893682	-0.426682078140844
7830016950	0.149180566506663	-0.433397270858968
7920016800	0.127239652185028	-0.424209685633537
8010016650	0.129220240030392	-0.412455915940389
8100016500	0.136403202858229	-0.404815357297835
8190016350	0.145564431307229	-0.407101128980949
8280016200	0.157836214780275	-0.424456734983136
8370016050	0.146228929617919	-0.436031910950025
8460015900	0.132709905698474	-0.436577816709864
8550015750	0.124131801825383	-0.419104860901055
8640015600	0.133798246089866	-0.402003532125105
8730015450	0.167985465184108	-0.379065169961684
8820015300	0.191189773081972	-0.379890645866234
8910015150	0.186990318505316	-0.390752896349681
9000015000	0.162172583613164	-0.40080215091503
9090014850	0.127455927883218	-0.393170563767994
9180014700	0.108948673137975	-0.375278628144124
9270014550	0.106746573294795	-0.361051702067545
9360014400	0.11591201308557	-0.362586381446408
9450014250	0.122365944837024	-0.391418301791911
9540014100	0.109270794118625	-0.421288025345747
9630013950	0.079806828567167	-0.438607277750315
9720013800	0.0494224932781869	-0.431255247077375
9810013650	0.0625160319715401	-0.396192608366071
9900013500	0.124244693424356	-0.363429946139201
9990013350	0.176184749223598	-0.354427581438781
10080013200	0.199550969476112	-0.371136121798343
10170013050	0.171598023575084	-0.392744137533395
10260012900	0.113729181269657	-0.387000534372208
10350012750	0.0678979358777318	-0.353253996668037
10440012600	0.0556897076400515	-0.308277674545741
10530012450	0.0828960209929593	-0.295243229894611
10620012300	0.100935215887509	-0.322544374532155
10710012150	0.0884403541773872	-0.376197008744725
10800012000	0.047866541913267	-0.410590069529103
10890011850	-0.00737925087945901	-0.415641992758028
10980011700	-0.0227817659781818	-0.393378259119105
11070011550	0.00517602716787025	-0.367504349982781
11160011400	0.0811374612063671	-0.351277117463993
11250011250	0.157063411682759	-0.347789507324667
11340011100	0.189928254777292	-0.365943446123761
11430010950	0.174434331040769	-0.381104725178578
11520010800	0.11684565526387	-0.37561721935183
11610010650	0.0676965493541245	-0.336405390658751
11700010500	0.0625972673133427	-0.277756415578082
11790010350	0.0727077656923295	-0.2445268745766
11880010200	0.0870249252983561	-0.249270945593613
11970010050	0.0710880906097979	-0.2965584971321
12060009900	0.0231121876874961	-0.34291719046583
12150009750	-0.028156001403072	-0.363038314000053
12240009600	-0.0668336877957564	-0.351933644676509
12330009450	-0.0472243425776695	-0.331125109779715
12420009300	0.0101307952365698	-0.318597000045935
12510009150	0.0730601265163332	-0.329133371555104
12600009000	0.115290656033411	-0.347402233732696
12690008850	0.113218174726625	-0.354746070848062
12780008700	0.0959719059261644	-0.341599874894231
12870008550	0.0883098761310054	-0.301663390025417
12960008400	0.100937509608671	-0.266765170623839
13050008250	0.115470787121417	-0.23989932044855
13140008100	0.122172220875214	-0.249909491045495
13230007950	0.0924776399185269	-0.272238391009918
13320007800	0.0458572540730097	-0.29310524858363
13410007650	0.000363925303522999	-0.281791384228954
13500007500	-0.00133407614986591	-0.260573432721181
13590007350	0.0259155777532436	-0.258237219354136
13680007200	0.052321397171835	-0.296215594670735
13770007050	0.0493955375458892	-0.338040108184918
13860006900	0.0277396834308245	-0.359181986268991
13950006750	-0.00275891816864879	-0.33684701133859
14040006600	0.004111497614104	-0.291081822144328
14130006450	0.0483504624774105	-0.25855470722435
14220006300	0.116887752368433	-0.24100862693219
14310006150	0.152522878983913	-0.264117293539566
14400006000	0.13998827014335	-0.301058794143457
14490005850	0.0853577518507811	-0.323841740699832
14580005700	0.0180738041122246	-0.295320235776632
14670005550	-0.00817769168965822	-0.237784550163865
14760005400	0.0265832027317928	-0.177541476786585
14850005250	0.0963843586442902	-0.167110250927981
14940005100	0.143403112632877	-0.218225292847263
15030004950	0.136839455292477	-0.282217215208125
15120004800	0.0761546231705603	-0.328602714627056
15210004650	0.00218080451271149	-0.327717308756835
15300004500	-0.0335466559203672	-0.28247259971339
15390004350	-0.00411010673532805	-0.241172889999414
15480004200	0.0721202504327059	-0.221332701716122
15570004050	0.150985271150187	-0.266267042851711
15660003900	0.166964217636688	-0.324386497709532
15750003750	0.130201269513694	-0.378395907242658
15840003600	0.0660419208261946	-0.377397198726518
15930003450	0.0209658471931235	-0.331636506263193
16020003300	0.0374122551464816	-0.275633288488193
16110003150	0.108529996665801	-0.223286733474262
16200003000	0.152662830969414	-0.246569404154998
16290002850	0.163928124054853	-0.298678177872748
16380002700	0.106388697699649	-0.351222223662507
16470002550	0.0282713997004021	-0.344618237752054
16560002400	-0.0155984972308887	-0.317605587772459
16650002250	-0.0228194845972576	-0.286594640346288
16740002100	0.00582536444015019	-0.27114687678897
16830001950	0.0402213566639088	-0.29779031522352
16920001800	0.0443072049877079	-0.339660264777044
17010001650	0.0362171203632322	-0.357096949484779
17100001500	0.00917624057258075	-0.357257176837269
17190001350	0.015924234918238	-0.324994856031705
17280001200	0.0316384038759259	-0.292654257141257
17370001050	0.0703249764202139	-0.269801330727855
17460000900	0.0959450204654426	-0.265877376086464
17550000750	0.0948130851473111	-0.284667521215919
17640000600	0.0665906319441613	-0.282516199187355
17730000450	0.0325475106248585	-0.267878534775851
17820000300	0.0294957622179905	-0.238624833624214
17910000150	0.0428693404957924	-0.23691945952705
18000000000	0.0562406917554065	-0.251877527968956
