!Keysight Technologies N9917A: A.12.46
!Date: Friday, 22 December 2023 20:28:32
!TimeZone: (UTC-03:00) Buenos Aires!Model: N9917A
!Serial: MY56072049
!GPS Latitude: 
!GPS Longitude: 
!GPS TimeStamp: 0001-01-01 00:00:00Z
!GPS Seconds Since Last Read: 0
!CHECKSUM:0145287480
!Correction: S11(ON U)
!S1P File: Measurement: S11:
# Hz S RI R 50
30000	1.00004978251136	-0.000379374092490293
18029970	0.998336730630538	-0.00262303193477666
36029940	0.998610578170238	-0.00607183964565268
54029910	0.998635566466394	-0.0283200311994942
72029880	0.940948090828088	0.0907425940714272
90029850	1.00349165818443	-0.0322688084850651
108029820	0.999021601831677	-0.0288403717912791
126029790	0.998148790477057	-0.0292403498262613
144029760	0.994957265238894	-0.0373595048486812
162029730	0.995323901844316	-0.048595774766826
180029700	0.997753980815963	-0.0547247347192215
198029670	0.998396479433022	-0.0579713309504572
216029640	0.997376925361963	-0.059232091589093
234029610	0.99365094883076	-0.0614107579841897
252029580	0.998734215281396	-0.0669825135167123
270029550	0.996637987066571	-0.0807497792899833
288029520	0.996773289026829	-0.0856191793563976
306029490	0.994417669171893	-0.0848215926655427
324029460	0.992250889034412	-0.0890517136855713
342029430	0.992682177053253	-0.094100453098704
360029400	0.992809020777809	-0.102279588658704
378029370	0.995683466949222	-0.109446263179528
396029340	0.993689366112171	-0.113173903483467
414029310	0.990988848319196	-0.118294551413865
432029280	0.986598992108089	-0.121044564453499
450029250	0.98771851354268	-0.130545052404913
468029220	0.988826479854965	-0.13454048377105
486029190	0.99172941320731	-0.138413621047067
504029160	0.986906874248988	-0.140119441188614
522029130	0.984446391448964	-0.14780935651614
540029100	0.983694828493392	-0.153271453754829
558029070	0.984995637026334	-0.159615969789992
576029040	0.98572834460877	-0.160196726683255
594029010	0.985437571839786	-0.159959155574593
612028980	0.980037663499612	-0.167170758444737
630028950	0.980963673777156	-0.173482085655193
648028920	0.978055071174299	-0.179971549790198
666028890	0.976480278317825	-0.184691776388448
684028860	0.980265349216635	-0.186281385039897
702028830	0.978866228963342	-0.186602420574973
720028800	0.980518815003123	-0.189892461232091
738028770	0.975277961812871	-0.195342946640301
756028740	0.969725760634453	-0.20194663046775
774028710	0.972085812906446	-0.2070336607972
792028680	0.976953784280255	-0.207787236658476
810028650	0.978687098409082	-0.205964015648867
828028620	0.974731340760966	-0.208690687347565
846028590	0.970402382877466	-0.21589861328937
864028560	0.962560862751558	-0.22286709509127
882028530	0.967029675636847	-0.230150928939049
900028500	0.976014248012605	-0.225661898912044
918028470	0.978409423922603	-0.222491942430188
936028440	0.966270389249281	-0.225079474726401
954028410	0.957191592730819	-0.236193101867479
972028380	0.955646204795432	-0.248358928369447
990028350	0.969018992592414	-0.248328639471913
1008028320	0.973695790309668	-0.241221027731906
1026028290	0.970049822638713	-0.238080884498041
1044028260	0.954081977002374	-0.24793202824875
1062028230	0.947508415892205	-0.267626749439403
1080028200	0.955721129966041	-0.275208037823734
1098028170	0.967701236927596	-0.266361639007021
1116028140	0.966746124735679	-0.260652530562844
1134028110	0.953708650823256	-0.263269873751181
1152028080	0.941838321039645	-0.279888051789484
1170028050	0.941086958610998	-0.29646065548607
1188028020	0.952561311408209	-0.296827996105785
1206027990	0.962780494643759	-0.286313541828149
1224027960	0.955081572669726	-0.288603511308988
1242027930	0.936711057238806	-0.301589084701617
1260027900	0.925448083585121	-0.324248501753196
1278027870	0.931575451200314	-0.329329924227406
1296027840	0.946504050907607	-0.31950933452561
1314027810	0.951066559088869	-0.313993459338514
1332027780	0.935668880617964	-0.32570765697344
1350027750	0.910640446540373	-0.349259313877597
1368027720	0.902235979970463	-0.364871600484264
1386027690	0.920333438725938	-0.362908329170278
1404027660	0.941233329346286	-0.351740880860403
1422027630	0.939655108487398	-0.355721945395312
1440027600	0.906770477669466	-0.376112887504864
1458027570	0.865303473898842	-0.396524709488783
1476027540	0.868446996870193	-0.407913048171227
1494027510	0.915421863132221	-0.407357553744539
1512027480	0.954349082485319	-0.398466933048626
1530027450	0.934193770658077	-0.408115830607014
1548027420	0.853392349281801	-0.413391734049933
1566027390	0.78883223379681	-0.406396372150612
1584027360	0.815746316487612	-0.446021708909327
1602027330	0.936209151315737	-0.49661482615348
1620027300	1.00141717017387	-0.486729445914984
1638027270	0.915101648962517	-0.463126311370508
1656027240	0.806860573987423	-0.37952937833298
1674027210	0.763795120496955	-0.346762047592461
1692027180	0.763501070714212	-0.456246881986716
1710027150	0.882562172823378	-0.642506550927784
1728027120	0.946810681764065	-0.622825873490649
1746027090	0.866752718306842	-0.469548211275418
1764027060	0.835803516291599	-0.365143719894989
1782027030	0.815749547768735	-0.372297883853746
1800027000	0.793773313051573	-0.494474966377117
1818026970	0.823923417580514	-0.655080477215506
1836026940	0.852169976017763	-0.599449738851405
1854026910	0.851722141867106	-0.45642703825128
1872026880	0.848121714599283	-0.395469285874497
1890026850	0.830642524483056	-0.430146726347717
1908026820	0.803144930465525	-0.541719674720542
1926026790	0.803914217084188	-0.62163857139033
1944026760	0.830358271989978	-0.553228524186643
1962026730	0.851023990006775	-0.452303550634305
1980026700	0.854042325344328	-0.422656217505212
1998026670	0.836211384907534	-0.464316297825472
2016026640	0.803835442925122	-0.552240693797444
2034026610	0.800953746786917	-0.587325908756476
2052026580	0.833331994069078	-0.523606718322079
2070026550	0.85831482629384	-0.452369290197082
2088026520	0.86052245266461	-0.43957352910102
2106026490	0.834651028058153	-0.481870595017588
2124026460	0.801752523375281	-0.551487220383749
2142026430	0.804398641794907	-0.565893792501688
2160026400	0.843287812009575	-0.507604939034028
2178026370	0.864529969496337	-0.454003264668586
2196026340	0.854770327233131	-0.447418093587254
2214026310	0.827377446914189	-0.492131574348184
2232026280	0.801141094207474	-0.551172943828353
2250026250	0.817125736164234	-0.554781664990272
2268026220	0.852767285937849	-0.496149581809468
2286026190	0.863189796791479	-0.454126759430457
2304026160	0.844934595249631	-0.459911886529676
2322026130	0.81381103427094	-0.51059878455436
2340026100	0.797827312570659	-0.559664311847615
2358026070	0.820879632387341	-0.54813688095704
2376026040	0.84367220177286	-0.495197286136115
2394026010	0.848949355628422	-0.469012334012057
2412025980	0.828148435903718	-0.485126540353989
2430025950	0.802796502391879	-0.537695585068177
2448025920	0.795500731205518	-0.571343368583773
2466025890	0.810811763954975	-0.548661898833526
2484025860	0.825687842055307	-0.509389336125783
2502025830	0.825442692269263	-0.496609792975269
2520025800	0.81114451889298	-0.521869067898829
2538025770	0.787135884587625	-0.565747661909676
2556025740	0.773319487500572	-0.586531477375171
2574025710	0.787505586312676	-0.568475108772434
2592025680	0.800852190397814	-0.5405804950427
2610025650	0.801489282578692	-0.540817562567847
2628025620	0.785508631626922	-0.566717946303868
2646025590	0.752645312794859	-0.60070900320416
2664025560	0.733267101568304	-0.613837022637309
2682025530	0.745154514580546	-0.599158967689778
2700025500	0.76425613465399	-0.586965926790817
2718025470	0.766833975178621	-0.587796323610305
2736025440	0.744136186873851	-0.608199941463642
2754025410	0.70337221776472	-0.63612250854432
2772025380	0.685885438111056	-0.650545528034639
2790025350	0.698679509336683	-0.648691828278544
2808025320	0.718270559881666	-0.641028378342714
2826025290	0.711920502520604	-0.641870582649224
2844025260	0.677853468948273	-0.65850052535009
2862025230	0.63891135412368	-0.681112377114913
2880025200	0.629605922022268	-0.699326285391036
2898025170	0.649383865236039	-0.69901341870576
2916025140	0.659500440775388	-0.690864574698974
2934025110	0.638715861786403	-0.68920924016606
2952025080	0.609432226638074	-0.704302545157414
2970025050	0.587014422301618	-0.727994949149539
2988025020	0.591860047495744	-0.737718126549512
3006024990	0.603356794914396	-0.7273892850339
3024024960	0.596149961547516	-0.719710932641858
3042024930	0.5769035815358	-0.728487391343752
3060024900	0.557499368814117	-0.750738464371291
3078024870	0.550357971582569	-0.759980119249468
3096024840	0.560485336111914	-0.753544559723433
3114024810	0.563006329374231	-0.743330724452447
3132024780	0.555010025792662	-0.74434437964441
3150024750	0.54597887520984	-0.759370153470819
3168024720	0.546225843752821	-0.765926884508068
3186024690	0.545786618785226	-0.759405635747021
3204024660	0.542750152647036	-0.749324875822849
3222024630	0.54068905698291	-0.752156580899144
3240024600	0.543986818144308	-0.763244345443124
3258024570	0.554080976045954	-0.768032946271546
3276024540	0.559449557910602	-0.752666280412457
3294024510	0.559757152154491	-0.736785833461527
3312024480	0.552650596259095	-0.738101439001204
3330024450	0.556066310701233	-0.755000522106098
3348024420	0.564650976698387	-0.764295814395792
3366024390	0.580168322704787	-0.748291815245001
3384024360	0.588142810342495	-0.72250743733425
3402024330	0.587164046287045	-0.714799072485982
3420024300	0.581649855435917	-0.730978061232867
3438024270	0.584760378869128	-0.745852706580656
3456024240	0.599686041184809	-0.738354985755281
3474024210	0.615513344137391	-0.713902449112108
3492024180	0.619746374850434	-0.693875042473906
3510024150	0.620323196606971	-0.697522546150178
3528024120	0.616042905787535	-0.715228463744497
3546024090	0.619828744171419	-0.720758574230705
3564024060	0.635709324779428	-0.701794880745767
3582024030	0.652075105116665	-0.678948766181409
3600024000	0.661972634049203	-0.667562407269891
3618023970	0.653244769620012	-0.677497828595938
3636023940	0.643372344050104	-0.691856430484265
3654023910	0.645059555101891	-0.695128772900173
3672023880	0.661973632598498	-0.67745657230983
3690023850	0.681604363579097	-0.657388333350106
3708023820	0.689080588112885	-0.652011319184213
3726023790	0.671787766792873	-0.654529740336073
3744023760	0.652768188234651	-0.671198909150385
3762023730	0.654848623893549	-0.679207032628523
3780023700	0.675417638467077	-0.671755439268907
3798023670	0.692073760186816	-0.653864580642122
3816023640	0.687298499718377	-0.64302764586757
3834023610	0.668611393426199	-0.650060452538999
3852023580	0.650117793417552	-0.668664025320446
3870023550	0.656902500010227	-0.681335051313076
3888023520	0.676924971018013	-0.672372901260945
3906023490	0.684246543462181	-0.652992970144272
3924023460	0.667897949082486	-0.643708023943188
3942023430	0.641040635642334	-0.659991803974419
3960023400	0.62352642370714	-0.689778879347416
3978023370	0.625545878637515	-0.708465089428928
3996023340	0.639496629195064	-0.695739938115922
4014023310	0.640177168578206	-0.669614752463454
4032023280	0.625351826230948	-0.669172261240142
4050023250	0.595357993420625	-0.694327716715907
4068023220	0.570818569557542	-0.729679845433244
4086023190	0.565925479004835	-0.739782416417835
4104023160	0.579051437858931	-0.722792979565424
4122023130	0.585736868101521	-0.702482539540616
4140023100	0.567476641937869	-0.70475351924181
4158023070	0.522105739121236	-0.736670270748153
4176023040	0.474761359148188	-0.771180817161304
4194023010	0.468881154947092	-0.784785118825971
4212022980	0.49680184140303	-0.76389482929653
4230022950	0.50475802889243	-0.749377536471808
4248022920	0.471041453717218	-0.755694422663487
4266022890	0.397991517802304	-0.783302516046592
4284022860	0.340627236320222	-0.815340589593982
4302022830	0.352526537027873	-0.824058425168916
4320022800	0.39779082972776	-0.812792583539781
4338022770	0.397622471154667	-0.796286664916559
4356022740	0.331831267944456	-0.800464392827349
4374022710	0.239870456424909	-0.820597704337858
4392022680	0.203689929736353	-0.85157797480949
4410022650	0.25124096787906	-0.86612021636537
4428022620	0.294994239975486	-0.84835658952224
4446022590	0.268773950047152	-0.82516567370399
4464022560	0.181178518945518	-0.821052290704823
4482022530	0.103280221388479	-0.842864273273496
4500022500	0.104365497013471	-0.882884917810764
4518022470	0.168827120631192	-0.88790606531199
4536022440	0.194918608771161	-0.860489227266185
4554022410	0.151426926265098	-0.836866586429239
4572022380	0.0812498066419145	-0.839709571803522
4590022350	0.049181406037622	-0.875548996037425
4608022320	0.0854891427487991	-0.903502589681054
4626022290	0.144127968745062	-0.88641545050137
4644022260	0.156693267523126	-0.859665737309391
4662022230	0.130431546320786	-0.847923055814463
4680022200	0.0929432735020082	-0.867913825755799
4698022170	0.0868787402374629	-0.896123449306344
4716022140	0.131271680954298	-0.89906835092708
4734022110	0.188226812719418	-0.878869357232319
4752022080	0.221174637803343	-0.855204563496742
4770022050	0.21878910080746	-0.856552664383658
4788022020	0.194627637722039	-0.874020950934704
4806021990	0.189771671818632	-0.884919832192893
4824021960	0.233069515846706	-0.880071134132194
4842021930	0.306873246506425	-0.86145887940483
4860021900	0.347493680074349	-0.843055187035472
4878021870	0.337286284147753	-0.840773954000947
4896021840	0.296995776305154	-0.847030256427275
4914021810	0.296467839429526	-0.858926211315627
4932021780	0.361497143165789	-0.850876609513296
4950021750	0.439690525477143	-0.82500498044365
4968021720	0.458795999672819	-0.796983427990874
4986021690	0.42568005856468	-0.795014425031922
5004021660	0.385532952108961	-0.808951370156552
5022021630	0.416488600062776	-0.824472781456032
5040021600	0.498011924756515	-0.796335477268056
5058021570	0.547217114050588	-0.761643674401429
5076021540	0.527281568217823	-0.74228037461352
5094021510	0.474188510764833	-0.753751890884124
5112021480	0.460880487895316	-0.78003231560698
5130021450	0.517747903793251	-0.782842725210668
5148021420	0.574432572388446	-0.74149060076151
5166021390	0.58460138267328	-0.709098596859366
5184021360	0.547199018464339	-0.708607854363644
5202021330	0.510666133855773	-0.7317716976551
5220021300	0.51829581813658	-0.753099656706013
5238021270	0.565370374116382	-0.742344180321514
5256021240	0.587135921794174	-0.707491467131557
5274021210	0.573969641524159	-0.692524087897179
5292021180	0.541675344338009	-0.702866447894558
5310021150	0.519300511907115	-0.725502727245118
5328021120	0.533382719676881	-0.736958028518437
5346021090	0.555614424079923	-0.719924702859256
5364021060	0.551692453511536	-0.703553152897893
5382021030	0.53243272013124	-0.7035313117395
5400021000	0.51279743762659	-0.716542174536857
5418020970	0.501934814822246	-0.737716965390224
5436020940	0.492409434531005	-0.743302863452372
5454020910	0.489594189903164	-0.732003115324283
5472020880	0.486070908515383	-0.724574936185157
5490020850	0.48290731380424	-0.725071621557998
5508020820	0.461246336289488	-0.745784737227982
5526020790	0.418519284589103	-0.755262212850423
5544020760	0.379696832237154	-0.76185946759462
5562020730	0.372206870041636	-0.765658932451948
5580020700	0.390938570191799	-0.766150833953048
5598020670	0.396771466426847	-0.764800061338238
5616020640	0.353661756766115	-0.766273578127997
5634020610	0.277715290947315	-0.77185115987818
5652020580	0.222016560829615	-0.784334677682549
5670020550	0.231946153637758	-0.801398943644151
5688020520	0.261989764180497	-0.797239703619051
5706020490	0.238160321754535	-0.784827319522298
5724020460	0.150606405304724	-0.775511313390811
5742020430	0.0536748928689266	-0.775604146869901
5760020400	0.0311353852360057	-0.81381979233766
5778020370	0.0788905080460017	-0.827821065467249
5796020340	0.0865022774736677	-0.805531837449509
5814020310	0.0166679071721512	-0.772153167237905
5832020280	-0.0886301145442225	-0.756657610391655
5850020250	-0.144640406088981	-0.782420658257181
5868020220	-0.108527034290006	-0.825599576378622
5886020190	-0.0649377538967265	-0.8158282378083
5904020160	-0.0978757294133856	-0.770199781017458
5922020130	-0.186898835501128	-0.733667755537756
5940020100	-0.263841986553006	-0.744651686224405
5958020070	-0.256622526013253	-0.795362309907675
5976020040	-0.203046629926715	-0.807713418572449
5994020010	-0.20066789587308	-0.771448222410881
6012019980	-0.252431435020183	-0.739518759726955
6030019950	-0.30340771201767	-0.752889669934324
6048019920	-0.299395658144854	-0.790160925088172
6066019890	-0.254680852382486	-0.806539174984318
6084019860	-0.237956655725133	-0.783069661687947
6102019830	-0.253370391292355	-0.775090732172188
6120019800	-0.262455637003999	-0.796399952792171
6138019770	-0.245731756347817	-0.838082729835962
6156019740	-0.201588577870749	-0.841848618557345
6174019710	-0.181082705613195	-0.826828785305244
6192019680	-0.168294039345236	-0.834138596483092
6210019650	-0.128068098006291	-0.866579379116916
6228019620	-0.0746463881549989	-0.886808089294423
6246019590	-0.0521245501598742	-0.874041752683322
6264019560	-0.0574172937187229	-0.857202818601156
6282019530	-0.045330632764263	-0.86293703924816
6300019500	0.0159787910588164	-0.900198891581755
6318019470	0.0952191688520602	-0.905607227296392
6336019440	0.126133074450048	-0.88091259495691
6354019410	0.111100270808829	-0.863801077453447
6372019380	0.103995127067302	-0.867769217937617
6390019350	0.170608020553949	-0.888839449005044
6408019320	0.261879122569705	-0.881639415280088
6426019290	0.297145564174311	-0.852214335695877
6444019260	0.26599938336329	-0.831262601913986
6462019230	0.233103055184696	-0.841116267306292
6480019200	0.272635473231379	-0.862963955554415
6498019170	0.366110438141001	-0.85137187592033
6516019140	0.415640012393311	-0.807232369400709
6534019110	0.398024126163079	-0.786176790939093
6552019080	0.355055111790555	-0.7926456434804
6570019050	0.348781672446087	-0.820489982872205
6588019020	0.40460573959038	-0.816263323003704
6606018990	0.457652742545172	-0.785366974940414
6624018960	0.465554631683687	-0.752739328240302
6642018930	0.433367886166283	-0.752885638444083
6660018900	0.41315624049369	-0.772522970963557
6678018870	0.436629921546484	-0.785754117559762
6696018840	0.469902394332042	-0.765233284014151
6714018810	0.47778009362997	-0.740730380485068
6732018780	0.456762299074354	-0.734610245644779
6750018750	0.437037167192977	-0.75026161566482
6768018720	0.440191849157085	-0.761322427197504
6786018690	0.453107318295235	-0.752263498874007
6804018660	0.449118795295373	-0.735844003312137
6822018630	0.429326808223403	-0.731155224869589
6840018600	0.420358513515623	-0.744360779798537
6858018570	0.41966202751181	-0.758747530767762
6876018540	0.417047256176659	-0.75110327796204
6894018510	0.395973658928602	-0.739695138100808
6912018480	0.36542322029386	-0.73978983809579
6930018450	0.353610560591961	-0.756209616755086
6948018420	0.364784627069595	-0.765266792686248
6966018390	0.362100996838893	-0.755692238732281
6984018360	0.325859582255253	-0.740606649240958
7002018330	0.262721335931963	-0.742640537065726
7020018300	0.221022923147888	-0.762205918010246
7038018270	0.225144700759091	-0.785704510298229
7056018240	0.241412764302787	-0.7758929093203
7074018210	0.206982806208365	-0.750962037357807
7092018180	0.130878766993578	-0.735022202315657
7110018150	0.0564769495603261	-0.749927207123985
7128018120	0.0415981171959365	-0.779076545219547
7146018090	0.0718870389153154	-0.782438505863868
7164018060	0.0658138569235207	-0.750735564526171
7182018030	-0.00822692169381847	-0.716331780888501
7200018000	-0.102819503783656	-0.700318378545623
7218017970	-0.154532665471601	-0.724041995975576
