!Keysight Technologies N9917A: A.12.46
!Date: Friday, 23 February 2024 21:56:33
!TimeZone: (UTC-03:00) Buenos Aires!Model: N9917A
!Serial: MY56072049
!GPS Latitude: 
!GPS Longitude: 
!GPS TimeStamp: 0001-01-01 00:00:00Z
!GPS Seconds Since Last Read: 0
!CHECKSUM:1307276458
!Correction: S11(ON U)
!S1P File: Measurement: S11:
# Hz S DB R 50
100000000	-0.00124138259842436	-1.53664431207672
124750000	-0.0131816259827834	-2.0224752268608
149500000	-0.0190482244993916	-2.48452190514492
174250000	0.000658225557214583	-2.76008357419607
199000000	-0.0130026190532648	-3.22036186023121
223750000	-0.00287906535857487	-3.65677029788969
248500000	-0.00764717822954322	-4.07118817952003
273250000	-0.0106944699563545	-4.3632902983657
298000000	-0.0110591660173192	-4.7883893386403
322750000	-0.0168885628215562	-5.45973305152991
347500000	-0.019943373883457	-5.73176279167579
372250000	-0.0134640300472279	-5.92781644598816
397000000	-0.0293335529676173	-6.41927481596227
421750000	-0.0220718985888677	-7.20323175156191
446500000	-0.0239148631539374	-7.50248444595778
471250000	-0.0298105000464681	-7.58969278600353
496000000	-0.0107804757723297	-8.04218930489493
520750000	-0.0203019143419038	-8.62916124037647
545500000	-0.0411522041270906	-9.10744086017777
570250000	-0.0216347927647458	-9.23503310959697
595000000	-0.0212621110820326	-9.59884002310172
619750000	-0.0251002572580185	-10.137884489401
644500000	-0.0653146750456771	-10.5710443466259
669250000	-0.0760591222792656	-10.8061883618214
694000000	-0.0189033412056034	-10.8865920854995
718750000	-0.0338244447899054	-11.2679064111332
743500000	-0.082681044168396	-11.921446950821
768250000	-0.0429223293805575	-12.1128463933153
793000000	0.0243233391410146	-12.2502775056573
817750000	-0.017855330928752	-12.3757941841334
842500000	-0.0897837865315889	-13.0305803675625
867250000	-0.0497912627846562	-13.6096101907056
892000000	-0.00790291306162902	-13.5455634525342
916750000	-0.0294869563266427	-13.522907702391
941500000	-0.0805979430847156	-14.0730824793938
966250000	-0.0555954766975882	-14.9651416976815
991000000	-0.0239298385663862	-14.9114676092299
1015750000	-0.0408781970084861	-14.8099306614384
1040500000	-0.0593886874204831	-15.2840296511939
1065250000	-0.0590844162048224	-16.4941197590284
1090000000	-0.0628276703905182	-16.6209199396787
1114750000	-0.0611779029022918	-16.1991282528763
1139500000	-0.0542990187315326	-16.6644413332809
1164250000	-0.0885259505669683	-17.6804462215349
1189000000	-0.0742430064332179	-18.3105386075004
1213750000	-0.0541981844307528	-17.9843686726988
1238500000	-0.0599708381243596	-18.1527995238991
1263250000	-0.120202605258065	-19.2221557974408
1288000000	-0.139378330325232	-20.3094020762781
1312750000	-0.0479227276713575	-20.1830231042
1337500000	-0.0581872045300761	-20.0304222003548
1362250000	-0.165841030466609	-20.8324371749285
1387000000	-0.155712853432398	-22.1336936715405
1411750000	-0.0782892345404587	-22.6303336774296
1436500000	-0.0717700113622424	-22.3166210508205
1461250000	-0.186737025220967	-22.7562331387306
1486000000	-0.199961068495635	-24.1698503797154
1510750000	-0.112312726020617	-25.0761017741474
1535500000	-0.119060019383992	-24.6373386990574
1560250000	-0.231556809235868	-24.513523156944
1585000000	-0.216364028730795	-25.9479491129197
1609750000	-0.151288354638877	-27.2896477919639
1634500000	-0.16892017843624	-26.9354870534327
1659250000	-0.225946431850423	-26.4002068126526
1684000000	-0.230289308444486	-27.3949226895805
1708750000	-0.183695438698266	-28.984491891637
1733500000	-0.193517622745754	-28.8738114670087
1758250000	-0.205062510646869	-27.8736748555235
1783000000	-0.219953737990616	-28.3519328943549
1807750000	-0.241116513820199	-30.3732811784333
1832500000	-0.217080640365706	-30.6839448870158
1857250000	-0.204963899797772	-29.2573897122421
1882000000	-0.223622238803521	-29.210456660608
1906750000	-0.280969977585492	-31.2161183938626
1931500000	-0.221460680519106	-32.0072302986446
1956250000	-0.160634130241117	-30.6300689320208
1981000000	-0.25262854551468	-30.0841469854112
2005750000	-0.291355213442573	-31.7433916805715
2030500000	-0.213814734481167	-33.1644514647148
2055250000	-0.153332157297149	-31.7926366776745
2080000000	-0.264212060561164	-30.8684162206717
2104750000	-0.316337133909872	-32.2873402778095
2129500000	-0.228439910894003	-34.1355451732666
2154250000	-0.186377586965181	-33.5068657164182
2179000000	-0.29001368101168	-32.2593878727683
2203750000	-0.30761247906239	-32.937561660051
2228500000	-0.218455485381465	-34.8174293573281
2253250000	-0.245275709999073	-35.147468098563
2278000000	-0.314191613678666	-33.8261613245922
2302750000	-0.282485042635857	-33.8651708206301
2327500000	-0.230583575225348	-35.7698093468289
2352250000	-0.308263644205059	-36.9985873077537
2377000000	-0.322647817295817	-35.8295380776597
2401750000	-0.247148505209319	-35.1280295486684
2426500000	-0.265921009713454	-36.5471784979219
2451250000	-0.372073382610412	-38.6488019800189
2476000000	-0.339372716253853	-38.0013221338942
2500750000	-0.252625282518664	-36.3898257041396
2525500000	-0.30963703709461	-37.722198072162
2550250000	-0.411789995375246	-40.3147476636628
2575000000	-0.359140343671514	-40.1415448814705
2599750000	-0.281687320228764	-38.1401419049666
2624500000	-0.348071153657681	-38.9406049212217
2649250000	-0.441990493203959	-41.8681161894705
2674000000	-0.398776587875187	-42.5287308527466
2698750000	-0.298332397190856	-40.3588269389137
2723500000	-0.410410991785512	-40.3682228427742
2748250000	-0.44965582128289	-43.1280523667109
2773000000	-0.430282368377183	-44.331167454725
2797750000	-0.413324324272168	-42.718520105027
2822500000	-0.429927868674151	-41.9174802009679
2847250000	-0.45370527458361	-44.307771335331
2872000000	-0.474667565274574	-45.9030065139579
2896750000	-0.496551589849205	-44.7151445378018
2921500000	-0.42141795304348	-43.5470680675754
2946250000	-0.404933049406745	-44.8507528361978
2971000000	-0.543666593435421	-46.9909019196494
2995750000	-0.543437635163476	-46.1901352712188
3020500000	-0.405501477419522	-44.6003032539513
3045250000	-0.413613890192146	-45.4308140362643
3070000000	-0.581219678246925	-47.4612789385446
3094750000	-0.598138605186073	-47.4548346092422
3119500000	-0.400269281965503	-45.7969464479556
3144250000	-0.411597373048356	-45.7109679205038
3169000000	-0.618792382412625	-47.8613132581037
3193750000	-0.647271014762887	-48.6448916845677
3218500000	-0.389896159286317	-47.2962073096652
3243250000	-0.425589648388544	-47.0176459072376
3268000000	-0.63750114319089	-48.7122704257691
3292750000	-0.646153977063643	-49.9315165508564
3317500000	-0.444976294357124	-48.8150020068655
3342250000	-0.455300715955709	-48.1445581837925
3367000000	-0.626906177532506	-49.2746741017482
3391750000	-0.663952280774891	-50.5759046428306
3416500000	-0.550263278655821	-50.66683737623
3441250000	-0.503199181101299	-50.0612325529406
3466000000	-0.592016138375137	-50.3032368115967
3490750000	-0.698417931355864	-51.7478836710887
3515500000	-0.649187512066872	-52.463933258058
3540250000	-0.508459506800378	-51.4603831191592
3565000000	-0.587034913695733	-50.8102183505965
3589750000	-0.757658946083487	-52.4573769377992
3614500000	-0.769871653281119	-54.4605524139975
3639250000	-0.543047832997793	-53.4646052485243
3664000000	-0.549610222005258	-51.9560259156652
3688750000	-0.78835243537341	-53.2424337755502
3713500000	-0.878465629093657	-55.6824387345884
3738250000	-0.569908552289053	-55.2390631930926
3763000000	-0.524402719041685	-53.6355223735027
3787750000	-0.857878424788906	-54.9765173828694
3812500000	-0.970571864330393	-57.4560006330592
3837250000	-0.604042500436574	-56.8713308768816
3862000000	-0.563999996791439	-55.4170050824236
3886750000	-0.932650293864894	-56.8036459832163
3911500000	-1.04552054258363	-58.9747626772555
3936250000	-0.697148813075381	-59.1938006991714
3961000000	-0.640118000514178	-58.3589403516318
3985750000	-0.924361401104899	-58.5193455060681
4010500000	-1.0076031996453	-59.0894331370202
4035250000	-0.799902647207435	-59.6779182801698
4060000000	-0.737591493457197	-60.6369939407432
4084750000	-0.896938769853869	-60.0142621689902
4109500000	-0.972405113278466	-59.0750905582647
4134250000	-0.921804211233943	-60.7097117923407
4159000000	-0.836774909587153	-62.4730785887803
4183750000	-0.79294865268436	-60.6978812360469
4208500000	-0.928334572895777	-58.6269388334287
4233250000	-1.07538229598331	-60.9325390066234
4258000000	-0.941624739257611	-64.6444832375884
4282750000	-0.727247653694318	-62.1279440604155
4307500000	-0.878330555641216	-58.7420901274692
4332250000	-1.18033289564479	-61.3817361763028
4357000000	-0.983090787759199	-65.6003531262502
4381750000	-0.613776688450264	-62.7164019843888
4406500000	-0.877053473813703	-59.4270801575262
4431250000	-1.20951666931147	-61.6432757898227
4456000000	-0.952232358708064	-64.9276694252973
4480750000	-0.627522512163951	-62.7233637814186
4505500000	-0.900486048377486	-60.27138624278
4530250000	-1.21843139934714	-61.9576898956753
4555000000	-0.906535198016748	-64.1311709379817
4579750000	-0.674371968859289	-63.4285901941293
4604500000	-0.992728569350397	-62.9835463147994
4629250000	-1.15320676644971	-63.5799246066726
4654000000	-0.892445619367353	-63.9627868252726
4678750000	-0.775118096291684	-64.3168337130273
4703500000	-1.00985984344388	-64.9156541459882
4728250000	-1.08651207960764	-63.9039025804873
4753000000	-0.92762376185272	-63.0137280158614
4777750000	-0.949844299998253	-65.7829651503638
4802500000	-1.08072737051261	-67.8934063333812
4827250000	-0.996144453745976	-65.028674027649
4852000000	-0.968157568285825	-63.2958871193825
4876750000	-1.12671447143952	-67.2727795728466
4901500000	-1.07793619574063	-70.4045925315219
4926250000	-0.952444340142783	-66.5099365704956
4951000000	-1.10629805398152	-64.4770602525868
4975750000	-1.30693508806949	-69.9451897214643
5000500000	-1.0761918253244	-73.0183993890462
5025250000	-0.932351505328096	-67.7623880617329
5050000000	-1.24947485930443	-66.3366721127718
5074750000	-1.42801424803809	-72.0579707362486
5099500000	-1.02835095073853	-74.5770344765709
5124250000	-1.05599465193501	-69.8318409487722
5149000000	-1.39377987746073	-69.0554528828294
5173750000	-1.43663930781324	-73.722160637011
5198500000	-1.04141859884406	-75.1144299428425
5223250000	-1.21027953614208	-72.3595725137578
5248000000	-1.52497704579243	-72.6033104214517
5272750000	-1.35045923344306	-75.8029642429413
5297500000	-1.08365765527487	-75.3635112025254
5322250000	-1.33912115702388	-74.3285767233592
5347000000	-1.56632706439092	-74.513818159736
5371750000	-1.31492440458698	-75.7000810516002
5396500000	-1.13743694015749	-75.7878544949527
5421250000	-1.49173997152765	-76.5004652173863
5446000000	-1.57601150012003	-76.6460168113178
5470750000	-1.24218440003362	-75.0109226364544
5495500000	-1.24439946112582	-75.6557778887909
5520250000	-1.56420539140921	-78.2095145220054
5545000000	-1.46069839150986	-77.7472746855597
5569750000	-1.2049886419503	-75.2915842049933
5594500000	-1.39178567331868	-77.023195107566
5619250000	-1.53457301537848	-79.7781397858371
5644000000	-1.28259807987346	-76.5150755723181
5668750000	-1.29284876476948	-73.0372868526348
5693500000	-1.53596593425612	-76.8977244950866
5718250000	-1.44997100131006	-80.6961868071065
5743000000	-1.24641795999454	-76.2014979386572
5767750000	-1.39611521224609	-73.2985548321201
5792500000	-1.55629746066198	-77.7959568227708
5817250000	-1.33851269591156	-79.8760135017362
5842000000	-1.20865334198795	-75.6145046403583
5866750000	-1.52147398960785	-74.4929215044648
5891500000	-1.56607465757909	-79.3706193950483
5916250000	-1.18338645922214	-80.0297871557411
5941000000	-1.12637097738785	-74.6693237771496
5965750000	-1.55298964407645	-74.3455116442846
5990500000	-1.50436006734799	-78.972228649095
6015250000	-1.05242531543038	-79.2011076873459
6040000000	-1.25260239054125	-76.0364269376261
6064750000	-1.60351317066482	-76.5019471876969
6089500000	-1.35847551647075	-78.6631112428037
6114250000	-1.06962663733128	-77.9424991804863
6139000000	-1.39699129513998	-77.6876685903318
6163750000	-1.59701405135709	-79.0086314422173
6188500000	-1.2887640920904	-79.2738809945111
6213250000	-1.18808343292498	-79.0112409118747
6238000000	-1.53339415855106	-80.7898418582816
6262750000	-1.50972077162595	-80.8788421106243
6287500000	-1.20301822370378	-77.7620797127262
6312250000	-1.34835428256614	-78.9672957823515
6337000000	-1.67307301115796	-83.826917928466
6361750000	-1.45450490791405	-83.2476623152964
6386500000	-1.21495679443879	-78.5854300964756
6411250000	-1.57845874301763	-80.5730463756325
6436000000	-1.68025297566427	-86.5005662203642
6460750000	-1.31268324104971	-84.1259006578068
6485500000	-1.401829763911	-78.8637318679512
6510250000	-1.76158427246758	-82.5015706218591
6535000000	-1.70402389570828	-89.2759098406704
6559750000	-1.35788025010925	-85.7447856720383
6584500000	-1.51845615012451	-80.6250122486709
6609250000	-1.89940903484364	-84.768245159541
6634000000	-1.69716511936152	-91.073488784026
6658750000	-1.35858835984116	-86.4377198331778
6683500000	-1.67985988604095	-81.8881488526837
6708250000	-1.9216228343519	-85.6839374709073
6733000000	-1.60611675316421	-90.277130601819
6757750000	-1.53186580910229	-87.5266818307271
6782500000	-1.8426173060343	-85.0161388410042
6807250000	-1.84360031286842	-87.3547879485974
6832000000	-1.59779982691072	-88.9104574088206
6856750000	-1.73153945088922	-88.2715776906875
6881500000	-1.89720537874597	-87.3224864761527
6906250000	-1.67912535895401	-86.9123556750206
6931000000	-1.57455663177958	-86.9876781816785
6955750000	-1.95632364685717	-89.0485679664413
6980500000	-1.93349610030748	-90.2149313714869
7005250000	-1.55015011472328	-86.8622263588333
7030000000	-1.71598512230223	-85.3601743964306
7054750000	-2.10268092045275	-89.4838885143018
7079500000	-1.86469324336672	-91.0023751896795
7104250000	-1.53528169807196	-85.7501920827022
7129000000	-1.86115840732516	-84.5608526680031
7153750000	-2.21176439819634	-91.3751974989469
7178500000	-1.7886072929556	-93.1213080014392
7203250000	-1.52547188766226	-86.0736246624103
7228000000	-1.92936428497389	-84.8029031885001
7252750000	-2.21819794749634	-92.0017387922595
7277500000	-1.74874608844698	-93.5154508766143
7302250000	-1.59866485340427	-86.6414679873365
7327000000	-1.97145769476558	-85.6958963813425
7351750000	-2.14494022063055	-92.6145248914995
7376500000	-1.79754662996375	-93.8209518444939
7401250000	-1.7502683046221	-88.3174361030714
7426000000	-1.9826555473846	-87.6501619263833
7450750000	-2.00029725789581	-92.5447669759851
7475500000	-1.84936061355961	-93.976304287245
7500250000	-1.9269608563367	-90.7675118946114
7525000000	-1.92928949229163	-89.7268949667717
7549750000	-1.84853270276578	-91.6326577046993
7574500000	-1.99693326725664	-93.7702830028722
7599250000	-2.09646296383606	-94.4716231763849
7624000000	-1.88851440827073	-93.0324027633562
7648750000	-1.77233047672656	-92.1367741637072
7673500000	-2.06780161917927	-94.3634643123666
7698250000	-2.18165378686947	-97.5993751818131
7723000000	-1.7825789163522	-95.4228077047792
7747750000	-1.72214441630386	-92.3176424298567
7772500000	-2.1944848115992	-95.4157466058471
7797250000	-2.18504928861116	-100.536688896864
7822000000	-1.67791768812589	-97.1204482328071
7846750000	-1.80441768027903	-91.8304817252002
7871500000	-2.24904273059184	-95.9397839069916
7896250000	-2.16756753319675	-102.689644408769
7921000000	-1.75813118513312	-98.7004905287524
7945750000	-1.8720755359899	-92.9674480252214
7970500000	-2.15743125758349	-96.5170265728809
7995250000	-2.10947597375913	-102.31924530514
8020000000	-1.8667046885433	-98.2907831517
8044750000	-1.92316283798642	-94.0032920226457
8069500000	-2.1672618360334	-97.7822036862829
8094250000	-2.10946667411816	-102.9154286556
8119000000	-1.97811039834086	-99.2702487090759
8143750000	-1.96764873135289	-95.2144082965517
8168500000	-2.01206238686294	-97.7035806544674
8193250000	-2.10344728977016	-101.226522861874
8218000000	-2.05037791011894	-99.0332382659644
8242750000	-1.91789119399771	-95.24970339112
8267500000	-1.88727896157791	-94.5894682266622
8292250000	-2.13451276109846	-96.6235099657812
8317000000	-2.1933341502956	-98.1041919245625
8341750000	-1.91712526237159	-96.1866755158379
8366500000	-1.86135086043884	-93.3029347135783
8391250000	-2.12698856015143	-93.4602271358396
8416000000	-2.23343180120246	-96.8884621459893
8440750000	-1.9058024312657	-96.6041809407502
8465500000	-1.85614077630146	-92.1599155374701
8490250000	-2.16680749251532	-91.6078801665055
8515000000	-2.30001711789804	-96.7092531844716
8539750000	-2.03128123659079	-98.0820828236824
8564500000	-1.87012721879683	-92.6085699519813
8589250000	-2.12534199631004	-91.0293292813898
8614000000	-2.28030897133897	-96.6046802579939
8638750000	-2.08711184559902	-98.6805924622126
8663500000	-1.90598614962227	-92.7187046610089
8688250000	-2.04636659319062	-90.2311278875627
8713000000	-2.33794693414478	-95.7513610436687
8737750000	-2.36520204719641	-100.130487221501
8762500000	-1.9904734723306	-96.0669907619476
8787250000	-1.93853136516015	-92.5112796606104
8812000000	-2.32696174562118	-96.2200775118274
8836750000	-2.55945717440492	-100.801845014239
8861500000	-2.09134658569722	-99.6643189793251
8886250000	-1.87900073478473	-96.4183815751614
8911000000	-2.39101334953955	-98.261194681681
8935750000	-2.68361957589803	-102.121838544272
8960500000	-2.08198821931743	-103.54603447957
8985250000	-1.89282495916409	-100.929965923867
9010000000	-2.50720269304348	-100.651820460238
9034750000	-2.74420208381603	-104.052388196658
9059500000	-2.16723228914307	-107.408900831277
9084250000	-1.96427542336248	-106.698423311994
9109000000	-2.54846544717138	-104.606356614066
9133750000	-2.62725344294578	-105.571291638597
9158500000	-2.12617950091774	-109.752291233515
9183250000	-2.11746130566587	-111.423536787833
9208000000	-2.52997387704835	-108.694516390635
9232750000	-2.3622769659819	-107.353070684118
9257500000	-2.15740257974768	-111.427774136337
9282250000	-2.29757420238624	-114.884150812863
9307000000	-2.29326217841183	-111.202197586659
9331750000	-2.10594843405445	-107.093061404987
9356500000	-2.2910383500339	-110.549695133916
9381250000	-2.40834874763303	-116.272608387093
9406000000	-1.99408227698712	-111.676214225709
9430750000	-1.82364812399262	-104.774131390891
9455500000	-2.37654646559998	-106.688720567012
9480250000	-2.53838909207424	-113.65020067034
9505000000	-1.76139553602202	-110.253594615911
9529750000	-1.76297378752664	-101.75066973641
9554500000	-2.53878684126157	-102.376331649272
9579250000	-2.59342953797093	-110.170099851296
9604000000	-1.61602786306485	-108.603664808038
9628750000	-1.74208849167584	-99.5450397468941
9653500000	-2.65744153768089	-98.5912415966707
9678250000	-2.56272236506029	-106.515373290959
9703000000	-1.58599518043494	-107.431338835606
9727750000	-1.78753421769333	-98.2020624525065
9752500000	-2.54763040069679	-93.6469718545695
9777250000	-2.50459202190481	-100.130827342657
9802000000	-1.8615067557394	-105.678936318036
9826750000	-2.00138157748772	-99.0734339665592
9851500000	-2.37975062313327	-91.4196077504858
9876250000	-2.31405329810549	-94.2276191230165
9901000000	-2.29537280802516	-102.175818317025
9925750000	-2.32678048262914	-101.415085734226
9950500000	-2.22038367530402	-93.1592173062755
9975250000	-2.280075182259	-91.8859742670309
10000000000	-2.77720098734004	-101.499488925246
