!Keysight Technologies N9917A: A.12.46
!Date: Friday, 23 February 2024 20:44:14
!TimeZone: (UTC-03:00) Buenos Aires!Model: N9917A
!Serial: MY56072049
!GPS Latitude: 
!GPS Longitude: 
!GPS TimeStamp: 0001-01-01 00:00:00Z
!GPS Seconds Since Last Read: 0
!CHECKSUM:0910101649
!Correction: S11(ON U)
!S1P File: Measurement: S11:
# Hz S DB R 50
100000000	-0.00613932219833403	-2.55114918026672
124750000	-0.0247943128944484	-3.32716549252602
149500000	-0.017791032712847	-3.83558968890555
174250000	-0.0112892034886039	-4.4510100478861
199000000	-0.00730964420183786	-5.19162735852166
223750000	-0.0545689244005281	-6.0595245181033
248500000	-0.0328877301240304	-6.68648455612428
273250000	-0.0106978640314909	-6.99067519853563
298000000	-0.0162639297316339	-7.72484547888895
322750000	-0.0714333878433761	-8.76394446434822
347500000	-0.0413078037628122	-9.28311711509093
372250000	-0.0203234062784162	-9.668287178384
397000000	-0.0267633295905026	-10.382547606091
421750000	-0.0771817654018971	-11.5886330230817
446500000	-0.0626810527396657	-12.0972308956702
471250000	-0.0382753308984602	-12.179371695315
496000000	-0.0628102289039685	-12.8096270074319
520750000	-0.0919502219080128	-14.0900258272998
545500000	-0.0874656238752521	-14.8362776976097
570250000	-0.0675022625809405	-14.750505801075
595000000	-0.0812827336679154	-15.213039393589
619750000	-0.0922871149699469	-16.2814528135469
644500000	-0.0929173883091935	-16.9483595749422
669250000	-0.0983815155543761	-17.1592919506633
694000000	-0.0690140554127382	-17.4450184065324
718750000	-0.0666728876231033	-18.077455804096
743500000	-0.126992195706502	-18.9119991804163
768250000	-0.145894560584159	-19.4216212379422
793000000	-0.0729804557955322	-19.5216318235592
817750000	-0.0688208068042341	-19.7514769588397
842500000	-0.162701021959645	-20.5669490093225
867250000	-0.171467822549293	-21.6950373136438
892000000	-0.078105320350932	-21.6316684910106
916750000	-0.073539418106134	-21.435881815299
941500000	-0.207490793466208	-22.3778614067145
966250000	-0.212418452291444	-23.9249054556063
991000000	-0.0850055808432982	-23.9309133728611
1015750000	-0.11218840855045	-23.3554757588639
1040500000	-0.2275752855812	-24.2486100134296
1065250000	-0.21434997702665	-26.1971511804355
1090000000	-0.128524254671705	-26.4695153676091
1114750000	-0.172210806622864	-25.6615266649292
1139500000	-0.246913898117848	-26.5947624550523
1164250000	-0.262135408126001	-28.5180152915569
1189000000	-0.200549901231971	-29.0899557427809
1213750000	-0.228009976981795	-28.5546334821769
1238500000	-0.261272292980601	-29.1289239781453
1263250000	-0.304863962480898	-31.1531118765943
1288000000	-0.304876743714115	-32.19965007817
1312750000	-0.283269242703355	-32.0489360136587
1337500000	-0.278222483018365	-32.3190275905061
1362250000	-0.348499206588834	-33.5660252187114
1387000000	-0.427471966397361	-35.3165335889483
1411750000	-0.368051180386942	-36.1466272450775
1436500000	-0.31764027799519	-35.9567861247481
1461250000	-0.42830122169914	-36.375597009635
1486000000	-0.554436545715086	-38.3731177077046
1510750000	-0.432141868243257	-39.9741971096638
1535500000	-0.353999109098289	-39.2415487402198
1560250000	-0.501863637370327	-38.9814110031558
1585000000	-0.610700166083417	-41.2050704708656
1609750000	-0.477789872133452	-43.4023764225582
1634500000	-0.415437263061968	-42.3397045021507
1659250000	-0.578266662278106	-41.3417127715353
1684000000	-0.659172292569026	-43.2597752708227
1708750000	-0.521732142580334	-45.8291222148232
1733500000	-0.478860202020639	-44.8663867827914
1758250000	-0.607326162993979	-43.3698564969115
1783000000	-0.650550380784394	-44.8094073524912
1807750000	-0.575066322500638	-47.3514369276887
1832500000	-0.572373868048778	-47.2434289581244
1857250000	-0.653034731344464	-45.439566784946
1882000000	-0.64460041120489	-45.8643284983585
1906750000	-0.620551554718618	-48.1766502816112
1931500000	-0.654453877923185	-49.0704797049793
1956250000	-0.629183138868723	-47.4172563828434
1981000000	-0.634136784219432	-46.8721796537093
2005750000	-0.680737305199565	-48.8011625099701
2030500000	-0.718701942059452	-50.6137438741976
2055250000	-0.633733801739743	-49.3717494702143
2080000000	-0.666167554436934	-47.7455931728674
2104750000	-0.763486742896457	-49.4155302515272
2129500000	-0.741315106264314	-52.4793601400989
2154250000	-0.658164920847468	-51.9322586031964
2179000000	-0.689342480544571	-49.7576532467762
2203750000	-0.798114150764473	-50.5005442387844
2228500000	-0.750916532809512	-53.8326357872342
2253250000	-0.71705556857474	-54.1901982873916
2278000000	-0.814784369370191	-51.8449637593947
2302750000	-0.832787656484462	-52.0842261946993
2327500000	-0.771799256788796	-55.5383964992858
2352250000	-0.804742040851386	-56.9998226346193
2377000000	-0.929659741135018	-54.7905305348777
2401750000	-0.87811482032634	-54.0952803232074
2426500000	-0.805261496671248	-56.7213893765714
2451250000	-0.943356762274064	-59.1044615902444
2476000000	-1.05518870423436	-58.0353219060641
2500750000	-0.874079968352935	-56.3437986419592
2525500000	-0.834819827992101	-58.1089021952645
2550250000	-1.09692353743676	-61.5008482827824
2575000000	-1.18886154659021	-61.2349423596671
2599750000	-0.89802282602904	-58.9366436758216
2624500000	-0.906907696801725	-59.6251994526723
2649250000	-1.2215644760322	-63.7719984229746
2674000000	-1.28161097005326	-65.1599435649808
2698750000	-0.989623063652699	-62.1279595387914
2723500000	-0.981497102205464	-61.5161059078514
2748250000	-1.29796140998	-65.7924802319889
2773000000	-1.33566122473704	-68.2513111806901
2797750000	-1.08480286517985	-65.0239063324389
2822500000	-1.07299419542515	-63.6270705092977
2847250000	-1.30287631805086	-67.0768173067706
2872000000	-1.38893538971824	-70.1166483987254
2896750000	-1.2457590957866	-67.3943790946847
2921500000	-1.14354874834632	-65.3342140769701
2946250000	-1.21435509621794	-68.234382415035
2971000000	-1.41780622262175	-70.9744368761789
2995750000	-1.40365262301607	-68.8685294924197
3020500000	-1.17900517535303	-66.97212721003
3045250000	-1.13225627094063	-68.7338386403523
3070000000	-1.47063275136767	-71.1137192512699
3094750000	-1.56223344275802	-70.3605116280702
3119500000	-1.19004396570945	-68.437307892642
3144250000	-1.07167430488018	-69.091728093427
3169000000	-1.52831636347951	-71.1550473264472
3193750000	-1.71013378669011	-71.6780192277648
3218500000	-1.24757929491743	-70.6011325193265
3243250000	-1.07069205301331	-70.1565813333811
3268000000	-1.56699854610255	-71.6155371256872
3292750000	-1.84412520271056	-73.2727098302482
3317500000	-1.28314124909465	-72.6967893125759
3342250000	-1.06513681431274	-71.1950503132868
3367000000	-1.59381563413255	-71.9810112311531
3391750000	-1.90966561137679	-74.381744877087
3416500000	-1.44504144293116	-74.7424939298922
3441250000	-1.18292741553247	-73.1876664702153
3466000000	-1.59030433392954	-73.5421097396014
3490750000	-1.94212970842269	-75.5984345368215
3515500000	-1.57553072844812	-76.5408126670893
3540250000	-1.29918637152823	-74.8996280520284
3565000000	-1.59250050829835	-74.345959325057
3589750000	-1.94352026217815	-76.4981600926908
3614500000	-1.82138549760873	-78.8859859147985
3639250000	-1.4146842481949	-77.9069813654969
3664000000	-1.53976765835463	-76.1917471325366
3688750000	-1.9609221077081	-77.1471883023531
3713500000	-2.04894002354361	-79.9906568348409
3738250000	-1.58467024406086	-80.6025513370893
3763000000	-1.51060261211643	-79.1021331507252
3787750000	-1.9960970537111	-79.3401776569099
3812500000	-2.21888657998878	-81.9505871002534
3837250000	-1.7118517148327	-82.9118542298367
3862000000	-1.53147949886542	-81.6602214956792
3886750000	-2.05162890025843	-81.3844390204375
3911500000	-2.37360025099901	-83.7337844322966
3936250000	-1.83150135500091	-86.058136512951
3961000000	-1.55626165331766	-85.0143548666382
3985750000	-2.04595537698434	-82.9790494036897
4010500000	-2.34887348135172	-83.8467243980237
4035250000	-1.977309475526	-86.7532883961261
4060000000	-1.65360625869252	-87.3557656119016
4084750000	-1.99988585605847	-84.7861609541903
4109500000	-2.2926198470524	-83.7702563004536
4134250000	-2.08830195005043	-87.2826261978726
4159000000	-1.79182552377445	-89.4449367976943
4183750000	-1.90532374332869	-85.737691776707
4208500000	-2.16142477545645	-82.7209051610726
4233250000	-2.27716889417749	-87.4361922615015
4258000000	-1.96583821339966	-92.1706534594342
4282750000	-1.76984509427129	-87.7782954476924
4307500000	-2.06134891802422	-83.1198493052788
4332250000	-2.38718929940137	-87.26762658169
4357000000	-2.11333684826177	-93.4724807227364
4381750000	-1.6885491580053	-89.1261219193872
4406500000	-1.95942849349614	-83.6917748975773
4431250000	-2.45279538980897	-86.6898171282209
4456000000	-2.13808182120756	-92.3870396162875
4480750000	-1.64944827858178	-89.4676779443993
4505500000	-1.99523384190693	-84.6254006167653
4530250000	-2.49285007873916	-87.0345931351789
4555000000	-2.19762546056166	-91.8429315689591
4579750000	-1.75126640618772	-91.1435600383793
4604500000	-2.09609499716306	-87.9409452362506
4629250000	-2.47046257864606	-88.6359629597458
4654000000	-2.15933962292549	-91.1965537083753
4678750000	-1.8975925780254	-91.8638543809273
4703500000	-2.19954733069723	-90.3512287523529
4728250000	-2.40814100840834	-88.7735244540581
4753000000	-2.2473051956778	-89.915171973899
4777750000	-2.22475851936	-94.0084601073053
4802500000	-2.3148759639111	-94.5739852711998
4827250000	-2.26784266725166	-90.2371041737168
4852000000	-2.30885297119443	-89.7331532818489
4876750000	-2.51272749827371	-95.7552432745232
4901500000	-2.39143178493445	-97.7890587898177
4926250000	-2.23370306445311	-91.8571728948902
4951000000	-2.47480575298211	-90.9689254121009
4975750000	-2.80017024227667	-98.5439555052626
5000500000	-2.41547314032896	-100.880655392659
5025250000	-2.16671628552579	-93.2270423775814
5050000000	-2.65845745674469	-92.1182938044701
5074750000	-3.00556622478044	-100.772309155799
5099500000	-2.40844619122743	-102.802464402525
5124250000	-2.22582922576278	-95.1846744464147
5149000000	-2.85103493289973	-94.8191567452681
5173750000	-2.97236698075966	-102.215342848532
5198500000	-2.37624057549083	-103.453604642527
5223250000	-2.46245746329088	-98.0082361897416
5248000000	-2.98515546004372	-98.7488963815366
5272750000	-2.87006917793348	-103.91902905369
5297500000	-2.33718755180609	-103.247525113334
5322250000	-2.61215003744534	-99.921678891218
5347000000	-2.99672658736826	-100.912367995352
5371750000	-2.72899089058894	-103.627309381727
5396500000	-2.48830714958401	-103.025780952094
5421250000	-2.81981186848059	-102.872971733102
5446000000	-2.89371947033004	-102.773825227657
5470750000	-2.53411349165362	-101.839632312299
5495500000	-2.58579470226487	-102.69540617061
5520250000	-2.94789442883974	-105.030905016609
5545000000	-2.7147408377909	-103.687362244795
5569750000	-2.46316138034577	-101.246272271159
5594500000	-2.77710285084966	-104.066285835054
5619250000	-2.8586911166614	-106.948231617053
5644000000	-2.47925364900303	-101.849750350447
5668750000	-2.51540086707636	-98.2923143447285
5693500000	-2.99602862895157	-104.362182396683
5718250000	-2.70153361233903	-108.615259600144
5743000000	-2.33136420145539	-101.36423564137
5767750000	-2.66994959769314	-98.2700291728147
5792500000	-3.06257411507757	-105.641239419362
5817250000	-2.55718898493421	-108.002152952957
5842000000	-2.29989624069578	-100.751400891427
5866750000	-2.88520845872094	-99.8733989443425
5891500000	-3.04246773620119	-107.850431984225
5916250000	-2.37100546237328	-107.457513726508
5941000000	-2.2992891922609	-99.5102747633618
5965750000	-2.99761250402028	-100.014214489561
5990500000	-3.01521683620576	-107.543905163516
6015250000	-2.27692964548248	-106.664681464596
6040000000	-2.51371853439486	-101.355585291577
6064750000	-3.15487679328908	-103.492634257535
6089500000	-2.8061265955811	-107.315057069343
6114250000	-2.42113334231053	-105.544906736377
6139000000	-2.8526347210002	-104.006342900481
6163750000	-3.11668040495135	-106.562902890449
6188500000	-2.62981700703339	-107.358226606567
6213250000	-2.6323690465367	-106.375088089588
6238000000	-3.05785036341023	-108.251337874662
6262750000	-2.93736152271495	-108.491587134226
6287500000	-2.53070257523061	-104.825810481929
6312250000	-2.97333392683582	-106.402970770096
6337000000	-3.30262813192802	-112.502389669353
6361750000	-2.71122177547009	-111.196039399274
6386500000	-2.59201155005116	-104.882719177654
6411250000	-3.28538534563539	-108.640614775119
6436000000	-3.28278084749639	-116.011225736183
6460750000	-2.55477184313347	-110.181618704393
6485500000	-2.80838885708212	-104.01678051186
6510250000	-3.54925934148304	-110.852551070126
6535000000	-3.19664284590815	-118.891614917081
6559750000	-2.55123485153693	-111.566178033382
6584500000	-2.98382303044552	-105.36733958998
6609250000	-3.60742615650492	-112.767038907423
6634000000	-3.07288774663273	-119.18710021843
6658750000	-2.56321351683973	-110.972681215251
6683500000	-3.17995144439642	-106.253827120166
6708250000	-3.51705576102187	-113.167142694998
6733000000	-2.89404927727689	-117.510639702187
6757750000	-2.83251408776741	-112.076472967489
6782500000	-3.31450459956238	-109.946155796409
6807250000	-3.25070925841067	-113.749093400233
6832000000	-2.89780924096979	-114.44739705848
6856750000	-3.08743935206397	-112.652662857688
6881500000	-3.2370273511918	-112.23445813473
6906250000	-2.94691570149148	-111.803586991591
6931000000	-2.96930717353889	-111.194721213888
6955750000	-3.42791881485198	-114.280106929633
6980500000	-3.16879965140615	-115.471205178941
7005250000	-2.7277980703538	-110.369858634964
7030000000	-3.10075748395483	-108.915014078459
7054750000	-3.5680834975131	-115.833219931226
7079500000	-2.97103834000572	-116.388458645356
7104250000	-2.6298752546785	-108.648764288622
7129000000	-3.377916575428	-108.707067751827
7153750000	-3.67900956750198	-118.790930507315
7178500000	-2.78725134809014	-118.87686733772
7203250000	-2.67277130340501	-108.894885098215
7228000000	-3.48990628235208	-109.791203819896
7252750000	-3.59520743657688	-120.295986999405
7277500000	-2.75456167312711	-119.377206076284
7302250000	-2.88123972519081	-110.11372897399
7327000000	-3.52128944529158	-111.954406843759
7351750000	-3.41097599951351	-121.02984588025
7376500000	-2.84486729536398	-119.740462451481
7401250000	-3.09928606961875	-113.439963951687
7426000000	-3.43960782570058	-115.252888289596
7450750000	-3.2279127566754	-120.923579427428
7475500000	-3.08589188742467	-120.344836807795
7500250000	-3.24864711017877	-117.663902911785
7525000000	-3.21325692066661	-117.689298386556
7549750000	-3.14523277881572	-118.982211344139
7574500000	-3.43372780453384	-121.602148991542
7599250000	-3.46010937804652	-122.97801636066
7624000000	-3.03276536418888	-120.729304944907
7648750000	-3.10313235802511	-118.303506418295
7673500000	-3.68014091188956	-122.958409833852
7698250000	-3.45662486446358	-127.694038921081
7723000000	-2.81808447885292	-122.857424050747
7747750000	-3.15174718711369	-118.172537017924
7772500000	-3.84419591680668	-125.235334640961
7797250000	-3.32859001885673	-131.093334378186
7822000000	-2.69221636981075	-122.800571214239
7846750000	-3.30014917460055	-117.514891794048
7871500000	-3.84873281604546	-126.347709980437
7896250000	-3.236985301802	-132.734024590675
7921000000	-2.86218558392764	-124.020523343041
7945750000	-3.3815341986921	-119.092561044989
7970500000	-3.65358637770299	-126.832310078818
7995250000	-3.14467019770538	-131.046421778297
8020000000	-3.07696434602302	-123.26354305288
8044750000	-3.41589340863236	-120.478445440328
8069500000	-3.47402214006346	-127.265041102845
8094250000	-3.13909474991857	-129.628573067952
8119000000	-3.22490907172457	-124.212459118109
8143750000	-3.29444206727131	-121.742377473178
8168500000	-3.21565614535991	-125.213072933804
8193250000	-3.24282294739409	-126.783285376039
8218000000	-3.29913490985056	-124.307599624895
8242750000	-3.04635692480728	-120.847350328518
8267500000	-2.97605021676423	-119.441323102902
8292250000	-3.46647700044421	-121.155491568166
8317000000	-3.49482782012078	-124.016313956517
8341750000	-2.92645285126266	-121.222422461309
8366500000	-2.95157376201411	-116.042820896611
8391250000	-3.59099112013788	-117.655670683103
8416000000	-3.53579678166625	-123.559623837326
8440750000	-2.8521383529811	-120.662553177809
8465500000	-3.07043160654356	-113.82535450718
8490250000	-3.70929795940737	-115.624088464795
8515000000	-3.57761404571067	-123.694070736431
8539750000	-2.95171468018342	-121.618850740636
8564500000	-3.19838102425901	-114.050449152324
8589250000	-3.65327307406658	-115.555228948521
8614000000	-3.49277303675519	-123.091749657307
8638750000	-3.19907411351012	-121.560521545587
8663500000	-3.2848102385979	-114.498300614259
8688250000	-3.53091457691351	-114.839313730303
8713000000	-3.63720461356844	-122.111607864959
8737750000	-3.65546210785214	-124.474849026294
8762500000	-3.40683081934511	-119.820490021895
8787250000	-3.32840076787205	-118.20197375872
8812000000	-3.73587344881447	-121.980666340901
8836750000	-4.01624705732826	-126.37638331033
8861500000	-3.47440750945047	-125.627616862227
8886250000	-3.20689306752109	-122.324371102187
8911000000	-3.93157055176096	-123.715763750663
8935750000	-4.29780333915349	-129.209684446548
8960500000	-3.41902943064676	-131.404510464227
8985250000	-3.15055656879485	-127.174290802031
9010000000	-4.06123733694149	-125.996552872696
9034750000	-4.37703772171221	-132.687076350338
9059500000	-3.3810625786627	-137.141866989014
9084250000	-3.25502954817385	-133.047914922656
9109000000	-4.10471626506335	-130.406268970467
9133750000	-4.16502674814143	-135.084465109059
9158500000	-3.35641721548054	-139.914926792939
9183250000	-3.43596498328629	-137.981862560164
9208000000	-4.03330540182491	-134.786953234122
9232750000	-3.7969421297218	-136.204035171758
9257500000	-3.34819861980665	-140.474993602519
9282250000	-3.61371796639289	-141.287666198501
9307000000	-3.68891436076332	-137.31368601073
9331750000	-3.34703987025539	-134.88886755377
9356500000	-3.54464475371658	-138.56409742849
9381250000	-3.73391672800873	-142.806257418369
9406000000	-3.13944701774108	-137.502171725125
9430750000	-2.98156519174623	-129.992782800537
9455500000	-3.78540822731274	-132.644911856932
9480250000	-3.818421633504	-140.763771504389
9505000000	-2.78467463767516	-135.65656779009
9529750000	-2.8704505325883	-125.260426904967
9554500000	-4.03680563163097	-127.201230438492
9579250000	-3.82849942872265	-137.484339362494
9604000000	-2.51494785907819	-133.480215853797
9628750000	-2.93344526171276	-121.389437126129
9653500000	-4.19245717039985	-121.855039428993
9678250000	-3.80608303823405	-134.034720496812
9703000000	-2.4630344117417	-132.077015843229
9727750000	-2.98510076757459	-118.66819863173
9752500000	-4.10798680815083	-116.032483267424
9777250000	-3.80195291534222	-127.583387353039
9802000000	-2.86478993493585	-130.663938983482
9826750000	-3.16928228088622	-119.798762233089
9851500000	-3.74694113004165	-113.044880084732
9876250000	-3.73322429336735	-119.812374317872
9901000000	-3.54548615851415	-127.966800046113
9925750000	-3.57666511539368	-123.676579023371
9950500000	-3.49798389393524	-114.621541477259
9975250000	-3.75642485075037	-116.533597403521
10000000000	-4.31828752352481	-128.473093718411
