!Keysight Technologies N9917A: A.12.46
!Date: Friday, 23 February 2024 20:50:25
!TimeZone: (UTC-03:00) Buenos Aires!Model: N9917A
!Serial: MY56072049
!GPS Latitude: 
!GPS Longitude: 
!GPS TimeStamp: 0001-01-01 00:00:00Z
!GPS Seconds Since Last Read: 0
!CHECKSUM:2001209706
!Correction: S11(ON U)
!S1P File: Measurement: S11:
# Hz S DB R 50
100000000	-0.000623139211759298	-0.0326866941610993
124750000	-0.00440029628689516	0.010775262366756
149500000	-0.00799763571335415	0.080735177102067
174250000	-0.0111351953948803	0.014744190305652
199000000	0.00338489121776735	0.00175468918205332
223750000	0.000905270440869181	-0.0210629410398435
248500000	-0.00400316540198773	-0.0460624831901429
273250000	-0.00940643975965354	-0.0126308408703786
298000000	0.000364363596082846	0.0377951306850163
322750000	-0.0126024545439135	-0.0216832386254115
347500000	-0.00250042320755254	-0.00558007124874606
372250000	0.0052954034058184	-0.00039301735105245
397000000	0.00786184141631126	0.00423059394337698
421750000	-0.00338875256912694	-0.0196193786287396
446500000	-0.00362695698162651	-0.102898514268106
471250000	-0.0128882963334985	0.00261737323605415
496000000	-0.00935785370114017	0.125100904850791
520750000	-0.000304602399120166	0.0380753912817254
545500000	-0.00471404103242498	-0.0241076272501562
570250000	-0.0094269416298124	-0.0930681556738908
595000000	0.000447785394373064	-0.00072771712803724
619750000	0.000703092029967686	-0.0423114996744211
644500000	0.000696970056058575	-0.0626032346525532
669250000	-0.00246445136963273	0.0290678476603209
694000000	-0.00822366933288222	-0.0972143228428139
718750000	0.00692723891231041	0.0560421826743758
743500000	-0.0159143130503535	0.0705712453050799
768250000	-0.0246119935973569	-0.00120658463339454
793000000	-0.00822110391253879	0.00489335839247033
817750000	0.00896148308572997	0.0192638752849924
842500000	-0.00466127842817152	-0.0204085373399078
867250000	-0.00910158824252543	-0.135660518801098
892000000	0.0109218465505213	-0.0560557392788976
916750000	-0.0126451917957061	-0.0837600974945328
941500000	0.00331287960454534	-0.0254030874344137
966250000	-0.000908448911863968	-0.131936370788011
991000000	0.0147895938721098	0.0574407277645276
1015750000	-0.00116064070129377	-0.00865865177321693
1040500000	-0.0154659530614767	-0.105557952279293
1065250000	-0.0065358797851448	-0.00376200967175473
1090000000	-0.00203309942071468	-0.0465620946598975
1114750000	-0.00812062840026114	-0.0208128428232811
1139500000	0.00437806032589732	-0.0482629321749188
1164250000	-0.00475367475361592	-0.0880398370577063
1189000000	-0.00333525263189505	0.00300102700206983
1213750000	-0.00391596087253368	-0.0891471908634095
1238500000	0.000546135992540454	-0.0501065344548734
1263250000	0.00345166029105171	-0.0945010866807594
1288000000	-0.0311130008399068	0.0101701558432274
1312750000	0.00454769697830051	-0.0841167889124852
1337500000	-0.00552572211771411	-0.0612986399547407
1362250000	-0.00234520192219787	0.00728379628003724
1387000000	-0.015666367798824	-0.121462643180564
1411750000	0.00621711519855945	-0.10305339271524
1436500000	0.00724300186644548	0.00809499206563831
1461250000	-0.00966254848750937	-0.0811647067262202
1486000000	-0.0188944426312407	-0.0290955528662463
1510750000	-0.00295785807269797	-0.15639344249846
1535500000	0.00398199032916717	-0.0924849016921202
1560250000	-0.00575576583817809	-0.0796784572458629
1585000000	-0.00717298312439009	-0.13479037643325
1609750000	0.00179728497590892	-0.016394864989851
1634500000	-0.00773389405357341	-0.0684581845947368
1659250000	-0.000317120798463251	-0.140754663575399
1684000000	-0.0146974621495812	-0.0142951785555515
1708750000	-0.00233966586430338	-0.0402314761174853
1733500000	0.00445644170201388	-0.0742248459538691
1758250000	-0.0282887166924403	-0.0925349507603913
1783000000	-0.0124217805969021	-0.116217965791172
1807750000	0.0115851170581202	-0.0456979678674344
1832500000	-0.00499232529773814	-0.0752238196533676
1857250000	-0.00488749979241086	-0.120499747335017
1882000000	-0.00849512566927852	-0.0492745502303155
1906750000	0.00436889849252904	-0.104622107273899
1931500000	-0.01061709974111	-0.121912314997287
1956250000	-0.00600904195140472	-0.152522496983141
1981000000	-0.0063533188120814	-0.000887377789629664
2005750000	-0.00166130467704057	-0.068567877909471
2030500000	0.00207965423699368	-0.0278300566447374
2055250000	-0.0164795498708454	0.0320516274623891
2080000000	0.00214993838378199	0.0148189746754526
2104750000	-0.0117328891342158	0.0341112230451417
2129500000	-0.00630736866854414	-0.157244650258911
2154250000	-0.000362911350970275	-0.103916992552206
2179000000	-0.00867380348371614	-0.00253832125931338
2203750000	-0.00680842703266328	0.0341423877934346
2228500000	0.00288663940416024	-0.0616762262543493
2253250000	-0.00440788251185357	-0.0394806911631603
2278000000	0.0075200866265732	0.0423133909998282
2302750000	-0.00413920136021587	-0.00521814212879712
2327500000	0.000953845599307947	-0.132613914678454
2352250000	-0.00495677827629472	-0.11273151048268
2377000000	0.0141358147665037	-0.0587977270168678
2401750000	-0.0059392225400362	-0.0155750576374874
2426500000	0.0126607769175611	-0.0758277082197174
2451250000	-0.00588647301201732	-0.0643539203290637
2476000000	-0.0128682401862224	-0.0929627450049519
2500750000	-0.00823778221133356	-0.125565867476189
2525500000	0.0132880807026319	-0.00751966796685487
2550250000	-0.00237031452070047	-0.0985248884880758
2575000000	-0.0249249814187546	-0.126133894445211
2599750000	-0.00124997657904706	-0.15212094180261
2624500000	0.00844975741585361	0.0452128525756093
2649250000	0.00220370621858407	-0.00908555404376126
2674000000	-0.0114847152751701	-0.0994157595609512
2698750000	-0.0189533426195008	-0.173550919385687
2723500000	-0.00238703650068568	-0.122196483530707
2748250000	-0.00198737106900851	-0.0575314963080673
2773000000	-0.00414579667601472	-0.0690376887921064
2797750000	0.0234249702942676	-0.024102626489393
2822500000	0.0039554063574665	-0.0996177338681911
2847250000	0.00227929857593966	-0.0749970783951931
2872000000	-0.0123219018750039	-0.0802038301463419
2896750000	0.0336587301921601	-0.0470670255722148
2921500000	0.014595870875866	0.0179482100788848
2946250000	-0.0145105065903282	-0.0700664496344085
2971000000	-0.0192342006351321	-0.189175467764794
2995750000	0.00802002357197271	-0.129909285984425
3020500000	0.00939427839303823	-0.0977117972130631
3045250000	0.00579720113051335	-0.0531516206483743
3070000000	0.00827619432800932	-0.0325164984884336
3094750000	-0.00447552609991206	-0.15806351166442
3119500000	0.0036595734962708	-0.209459718814276
3144250000	0.0233715190614787	-0.100429454412991
3169000000	0.00623791150325819	-0.126937645036797
3193750000	0.0204417262944122	-0.374346622222157
3218500000	0.0180289419365372	-0.0255407668947631
3243250000	0.00243089376174207	-0.16750971891591
3268000000	0.0156431924443452	-0.132424356131925
3292750000	-0.00120728541044531	-0.0373174994497797
3317500000	0.0301338560936489	-0.196470997020356
3342250000	0.031047823386475	-0.264536680052476
3367000000	-0.00098253763402629	-0.127392520982147
3391750000	-0.00736320071082647	-0.0953707432739443
3416500000	0.0227344826224917	-0.187131429199931
3441250000	-0.00536742941497757	-0.187978470821496
3466000000	0.0110479886923045	-0.151619915855608
3490750000	-0.00368982822976614	-0.194603840514192
3515500000	-0.00170345604266209	-0.202577611450567
3540250000	0.00230577563942349	-0.260389616342063
3565000000	-0.00445963247205898	-0.222942475326975
3589750000	0.00760635997931856	-0.144784778865899
3614500000	-0.00375772803613588	-0.217980897702537
3639250000	-0.00413221853304836	-0.226750202677694
3664000000	0.0042368334838832	-0.14440901371876
3688750000	-0.0145958734012469	-0.0820639563943107
3713500000	-0.000993528434966718	-0.181736464533611
3738250000	-0.00688150816909991	-0.168552324003112
3763000000	0.0075450703471044	-0.120174153956288
3787750000	0.00311107056731099	-0.0240767169980676
3812500000	-0.0241286708945563	-0.101255542163871
3837250000	0.00530252775856642	-0.211648499452405
3862000000	0.00815764151179978	-0.187263436667598
3886750000	-0.00777576092975962	-0.0543315931263435
3911500000	-0.005085499858725	-0.16796111139669
3936250000	0.0156685764729439	-0.231514755764239
3961000000	0.00674647850899071	-0.137786618246307
3985750000	0.00449254574871664	-0.116019382218106
4010500000	0.00498912095617482	-0.108205669734474
4035250000	-0.00864775364015613	-0.23383446163503
4060000000	-9.68851417818821E-05	-0.153325851866861
4084750000	0.00693892271539112	-0.179625101687203
4109500000	0.00615133400802303	-0.0680850332689988
4134250000	-0.0326848526411941	-0.292960432988417
4159000000	0.00377194206817826	-0.152884677452401
4183750000	0.00951231498952177	-0.180547439660198
4208500000	-0.00430033862816221	-0.242689532048715
4233250000	-0.00469814825644472	-0.181152143775533
4258000000	0.00545206622057116	-0.296082799448062
4282750000	0.00108217145420846	-0.235541331548712
4307500000	-0.00656147974477507	-0.0992512183812464
4332250000	0.0201880871360662	-0.141570297367586
4357000000	-0.0162488435690208	-0.257753928202254
4381750000	-0.00108081994029085	-0.21200584274465
4406500000	0.0134269735452667	-0.181940518861903
4431250000	-0.0135924031030041	-0.090067927294686
4456000000	0.00413199142084282	-0.142136965604834
4480750000	-0.00125510970751444	-0.19524594058314
4505500000	0.0143302956517753	-0.0062621415400124
4530250000	0.00256911493423594	-0.146966781290107
4555000000	0.0034641019286152	-0.170557915494896
4579750000	-0.0147033023005662	-0.0967780853595829
4604500000	0.00927519357803097	-0.179527729814545
4629250000	-0.00706703214090583	-0.199347639035797
4654000000	0.0178558120924612	-0.165025815740494
4678750000	0.0149857725212982	-0.20457068017472
4703500000	-0.0019831965708502	-0.190730635278393
4728250000	-0.013038340174658	-0.202434635549226
4753000000	-0.00531848827002909	-0.150355576201383
4777750000	-0.00900484656256183	-0.250888561120822
4802500000	-0.00786271120446947	-0.10203991052054
4827250000	0.00296970233609436	-0.221115227759812
4852000000	0.0139969013747114	-0.262412696796119
4876750000	-0.00444079237904165	-0.158846491094464
4901500000	-0.00526058160480386	-0.205519666935469
4926250000	-0.00909080928431287	-0.145168109863272
4951000000	0.00498219401316885	-0.112737852401024
4975750000	-0.0032806075712263	-0.247282906339519
5000500000	0.00634654548424927	-0.143588176721217
5025250000	0.0226394515421102	-0.0190074402211804
5050000000	0.00384448721882903	-0.158894604572987
5074750000	0.00845525913368034	-0.223718778049984
5099500000	-0.0229033497317828	-0.220578302241552
5124250000	-0.00382187597636215	-0.0983784837284872
5149000000	-0.00900195876446731	-0.146119635951696
5173750000	0.0029173541079911	-0.181557482822505
5198500000	-0.0176484536032176	-0.121698783192939
5223250000	-0.0050382916474091	-0.200073290683198
5248000000	-0.00704427326446284	-0.133478160756795
5272750000	0.000269605385310683	-0.183109054076538
5297500000	-0.00921701026220841	-0.346290498077779
5322250000	0.00936513187366062	-0.0831257892075702
5347000000	-0.00265926204522308	-0.23774453466898
5371750000	-0.0273039396660771	-0.149338147684302
5396500000	0.00217409061167884	-0.274974879237707
5421250000	0.00973024366216556	-0.309687037268449
5446000000	0.00983980374063042	-0.280402465282709
5470750000	0.00513371760931287	-0.0536061003994332
5495500000	-0.00857406344123096	-0.261489591778234
5520250000	0.0019227375634254	-0.210903231101391
5545000000	0.00447137720391078	-0.277037287108302
5569750000	0.00847649971641961	-0.402921578704695
5594500000	0.0178285514729109	-0.024975877631947
5619250000	0.0114742301069812	-0.181655978648371
5644000000	0.00995687873222358	-0.33275276772356
5668750000	-0.0492648367702953	-0.124539125472245
5693500000	0.00875339179234011	-0.22993349549669
5718250000	0.0169429975164	-0.363117071021362
5743000000	0.00841431535562219	-0.262324228223471
5767750000	0.00777652856259066	-0.129048055334858
5792500000	-0.0128862995611646	-0.287632683232659
5817250000	-0.0114537455705161	-0.148013264506635
5842000000	-0.0467487614587898	-0.022358369433813
5866750000	-0.0261642793114031	-0.121687410991909
5891500000	-0.0194442135623159	-0.160082933201698
5916250000	-0.0162788802689333	-0.172301321129671
5941000000	-0.0207811954655454	-0.186988737271112
5965750000	-0.00584767482948665	-0.154857828471596
5990500000	-0.0193776677470202	-0.221645325566947
6015250000	-0.0224255102632732	-0.106965605312745
6040000000	0.00927586392591728	-0.199858403494452
6064750000	0.0247053806117454	-0.102236051422083
6089500000	-0.0227073419871845	-0.0185350208611474
6114250000	-0.0168183608624706	-0.183038361315083
6139000000	0.0100917975492629	-0.221140226756503
6163750000	-0.0263574891314295	-0.138528659549274
6188500000	-0.0333530496794182	-0.122790995510732
6213250000	-0.0202854213500912	-0.101638016386222
6238000000	-0.0188800484105364	-0.276390709361687
6262750000	-0.00468151407400195	-0.170037283215661
6287500000	-0.0230096775029794	-0.0598007655320185
6312250000	0.0015604758128753	-0.136299397529142
6337000000	-0.0116589667679647	-0.221415351320147
6361750000	-0.0138048410181048	-0.170374211326678
6386500000	0.013592614975587	-0.206533714156174
6411250000	0.00991228289803568	-0.291117922805289
6436000000	-0.00520891181323098	-0.260598547821422
6460750000	-0.000691262618385292	-0.180554012102519
6485500000	-0.00664225532440366	-0.248061801758357
6510250000	-0.0177305063106359	-0.111677537482687
6535000000	-0.015344273093478	-0.192252451975351
6559750000	-0.0272430376956402	-0.347041951101103
6584500000	-0.00151775535572306	-0.214548711460171
6609250000	-0.0149621839244093	-0.191551840048913
6634000000	0.0111944781084499	-0.219158762137963
6658750000	0.000991770457583688	-0.186316807819137
6683500000	-0.00226250788172457	-0.0883870199214739
6708250000	0.0132696783342232	-0.174386547447514
6733000000	0.0161282926465908	-0.431451559874713
6757750000	-0.0262883405174297	-0.211310191622
6782500000	-0.0137781303055293	-0.266622255193285
6807250000	0.0143339612446727	-0.292998483851535
6832000000	0.00649153855343484	-0.137530204323794
6856750000	-0.00185392748632936	-0.264908330464125
6881500000	-0.0233979355956636	-0.263762686955023
6906250000	-0.0130229677859088	-0.204533228232726
6931000000	-0.0350397715212938	-0.353769056326111
6955750000	-0.0191963332674	-0.318963020777742
6980500000	-0.0152243888508998	-0.264689359867373
7005250000	-0.0272138919270501	-0.0518879181759147
7030000000	0.0180532368416709	-0.202556817040734
7054750000	-0.0203011805212352	-0.27767678281435
7079500000	-0.0101862949754051	-0.310220805518076
7104250000	-0.0132190438581671	-0.352132378479527
7129000000	0.00720372656955139	-0.14114949474993
7153750000	-0.00313702454979926	-0.283737845995919
7178500000	-0.00143265769816678	-0.308258350832176
7203250000	-0.00568073450865767	-0.307022835818654
7228000000	-0.017373127386714	-0.297116835303211
7252750000	0.0158831093448692	-0.219545192210017
7277500000	0.0197441372578304	-0.303262706871789
7302250000	-0.000402461368784741	-0.158640829412765
7327000000	-0.0188637874760014	-0.310579162304805
7351750000	0.0271907587697439	-0.14232207223016
7376500000	0.0232317901222921	-0.207556481376227
7401250000	-0.0363203197158487	-0.365819393492187
7426000000	-0.0306625417545013	-0.239714693165301
7450750000	0.00392727738940497	-0.272039756102226
7475500000	-0.0150988644212894	-0.283059865793056
7500250000	-0.0204359009649119	-0.181999380766569
7525000000	0.0102864545191409	-0.254789269471619
7549750000	-0.00217986405359827	-0.176635393842551
7574500000	0.0142285514399078	-0.484855510993253
7599250000	0.0236620559818428	-0.199971485885405
7624000000	0.0107935658424148	-0.227735423829228
7648750000	-0.00370618454849733	-0.30498475944237
7673500000	0.00636401076856749	-0.206080218203415
7698250000	0.0113352091569179	-0.235862506286193
7723000000	-0.0143597716190864	-0.182188492773661
7747750000	0.000445025757016134	-0.360319459352343
7772500000	0.0048559772403126	-0.26960710766328
7797250000	0.01514299852367	-0.388371145768011
7822000000	0.013399395583109	-0.266068583481143
7846750000	-0.0220262314335084	-0.0229221127627697
7871500000	-0.00234006033132573	-0.231669982561815
7896250000	0.012651779262785	-0.344919629109838
7921000000	-0.00333133310910841	-0.147689795463409
7945750000	0.0126422244596978	-0.476266824580757
7970500000	0.0146286619991264	-0.336406904396913
7995250000	0.00215715084520526	-0.387861351616134
8020000000	-6.84092219453757E-05	-0.134991754711139
8044750000	-0.00955049043539899	-0.380114223109466
8069500000	-0.0248158238522304	-0.29691197192215
8094250000	-0.00299735116931816	-0.256941350509046
8119000000	0.0102643756544834	-0.358615036322169
8143750000	-0.0271953777160373	-0.293898872246107
8168500000	0.00227043806109829	-0.283739937748107
8193250000	0.00187253393864317	-0.270147847457837
8218000000	-0.0127513469545564	-0.314224584295944
8242750000	0.0078783602605354	-0.331822985183149
8267500000	-0.0132504940546727	-0.234186806295179
8292250000	0.00144126956688069	-0.335221636237514
8317000000	-0.0096619879032338	-0.389925329843722
8341750000	0.00168466438697316	-0.30179602080402
8366500000	-0.00409349074787235	-0.266469802461911
8391250000	-0.012076085534365	-0.221158750619033
8416000000	-0.00941389442644571	-0.190499708779938
8440750000	-0.0196145190791485	-0.377092355056134
8465500000	-0.0167761029500495	-0.247954718958344
8490250000	0.014315479566386	-0.317955800856887
8515000000	0.020978508278882	-0.270850582589119
8539750000	-0.00169390497400604	-0.195885837412391
8564500000	0.00919713396500404	-0.253863154059769
8589250000	-0.00559519570834558	-0.20680425902556
8614000000	-5.58457098095903E-05	-0.248503129517202
8638750000	0.00791770851051128	-0.269705684324689
8663500000	0.00287800937623297	-0.314864450803673
8688250000	-0.00272595884047829	-0.348560030890797
8713000000	-0.0114009044878874	-0.516669622518189
8737750000	-0.000872625033498007	-0.308893134216676
8762500000	-0.00737226701246316	-0.257776085690362
8787250000	-0.0510346815847144	-0.247598103056159
8812000000	-0.0136797853305258	-0.265537906306765
8836750000	-0.0180351252707613	-0.321850283701593
8861500000	-0.00140179179172302	-0.433855237612056
8886250000	-0.0100634569293704	-0.450790760869687
8911000000	0.00283460248346914	-0.287627034720264
8935750000	0.00533602511769752	-0.468701534971541
8960500000	-0.00946017603150253	-0.310750262082235
8985250000	0.0194392212570819	-0.380029083827307
9010000000	0.0138223073805125	-0.264489801935527
9034750000	-0.00510560140732553	-0.187733341762072
9059500000	0.0153960859187048	-0.405855356997527
9084250000	-0.00456247008704558	-0.244832329360838
9109000000	-0.0103148365501477	-0.245254932977089
9133750000	-0.0304627556135494	0.0173290063692283
9158500000	0.00585707197318043	-0.344510073349674
9183250000	-0.0127218556185721	-0.247054118513641
9208000000	-0.0174686856170721	-0.215501977229427
9232750000	-0.0130170966124934	-0.444352348005438
9257500000	0.0132708371404431	-0.444729488118274
9282250000	-0.00943538890310482	-0.149126563851572
9307000000	0.00323232537272494	-0.308618365339025
9331750000	-0.016918152482611	-0.277259501125506
9356500000	-0.0172896877116299	-0.399994094797301
9381250000	-0.0013791967184671	-0.312639857930383
9406000000	-0.000737915352849811	-0.340534986573158
9430750000	0.0425835417691511	-0.432699907833097
9455500000	-0.00326799465207402	-0.290042345422765
9480250000	0.0059548152575223	-0.407655803362171
9505000000	-0.00250074100087098	-0.593448198561785
9529750000	-0.00133910749661844	-0.281111098769359
9554500000	0.0141606260344371	-0.363869915535624
9579250000	-0.0252076494436124	-0.376103162083731
9604000000	-0.0200165117835939	-0.235493080812151
9628750000	0.00140579177793103	-0.240712123405333
9653500000	-0.00790857641094806	-0.168040655596762
9678250000	0.00672049327208625	-0.165271745389269
9703000000	0.0357827343406402	-0.358862320618081
9727750000	-0.0189123607994685	-0.249635042156273
9752500000	-0.00354284965265476	-0.396785286354537
