!Keysight Technologies N9917A: A.12.46
!Date: Friday, 23 February 2024 20:45:34
!TimeZone: (UTC-03:00) Buenos Aires!Model: N9917A
!Serial: MY56072049
!GPS Latitude: 
!GPS Longitude: 
!GPS TimeStamp: 0001-01-01 00:00:00Z
!GPS Seconds Since Last Read: 0
!CHECKSUM:0437819687
!Correction: S11(ON U)
!S1P File: Measurement: S11:
# Hz S DB R 50
100000000	-0.0256215829823456	-1.1681790936921
124750000	-0.0578352079468775	-1.61391325724644
149500000	-0.0801303438521666	-1.79172331783052
174250000	-0.0936061085524789	-2.05843098995165
199000000	-0.106232633257984	-2.30064532345854
223750000	-0.155919528256718	-2.66379922262337
248500000	-0.173017677833416	-2.9009265243879
273250000	-0.178659302127199	-2.88950007454629
298000000	-0.208842235352774	-3.16983427064429
322750000	-0.275528602971732	-3.38183822358596
347500000	-0.27944526319465	-3.4480973718012
372250000	-0.294032282516303	-3.57940481790674
397000000	-0.321445599223551	-3.72946741183008
421750000	-0.378820346523155	-3.87503101877235
446500000	-0.39016834668789	-3.92033065417477
471250000	-0.389472855642951	-3.89578013448555
496000000	-0.412582355321958	-3.95977026193314
520750000	-0.464814578059591	-4.21937662290446
545500000	-0.492865233208291	-4.27631985146725
570250000	-0.474152646722429	-4.18729127006026
595000000	-0.501773126706196	-4.13664320063892
619750000	-0.53316620925978	-4.31421409899857
644500000	-0.535180084650374	-4.34353222268416
669250000	-0.556348438539096	-4.24026220006321
694000000	-0.542790407676921	-4.2788895345928
718750000	-0.554154374930497	-4.26947717273256
743500000	-0.589811311796405	-4.33125404645305
768250000	-0.610632964055584	-4.27978651994892
793000000	-0.582515657346385	-4.28365766263984
817750000	-0.582101159095302	-4.2504739238091
842500000	-0.64216901208081	-4.14869404312006
867250000	-0.653317804816027	-4.41066775712295
892000000	-0.618411536120853	-4.39694151984825
916750000	-0.585385157910066	-4.19322913881802
941500000	-0.659308335571466	-4.08517711576121
966250000	-0.676196190507195	-4.39558063957533
991000000	-0.646897220738189	-4.49180919952437
1015750000	-0.625290392723326	-4.21153697422342
1040500000	-0.657348142974045	-4.33539351304151
1065250000	-0.690593967730933	-4.42819745919269
1090000000	-0.68412301180091	-4.50116132973807
1114750000	-0.674186726390373	-4.40364339817541
1139500000	-0.672011708186413	-4.21908530115695
1164250000	-0.726916258677943	-4.53165214583201
1189000000	-0.726329737792782	-4.57994402313388
1213750000	-0.704491852633923	-4.51425657293469
1238500000	-0.695152978107509	-4.43144998342628
1263250000	-0.737224211560266	-4.54909236247313
1288000000	-0.766615105753708	-4.73386292025239
1312750000	-0.742027792416516	-4.6595554978972
1337500000	-0.732003459017849	-4.62408798085823
1362250000	-0.756960407907469	-4.66200623783174
1387000000	-0.819588812666733	-4.81645978288816
1411750000	-0.816418903570792	-4.98093351662063
1436500000	-0.777674627203142	-4.94627487718927
1461250000	-0.813029614198085	-4.80447395729207
1486000000	-0.856569267660523	-5.05796009033736
1510750000	-0.862067805410527	-5.28088670169243
1535500000	-0.828151142236914	-5.16995478085737
1560250000	-0.831834922525216	-4.91847674892112
1585000000	-0.891340901742921	-5.112575365414
1609750000	-0.897618373294594	-5.55385385571257
1634500000	-0.866572895342892	-5.53228624740307
1659250000	-0.843141991515294	-5.19859790854523
1684000000	-0.885653570886061	-5.1916843633652
1708750000	-0.913044089800411	-5.62385266940316
1733500000	-0.891792364237783	-5.66351068105764
1758250000	-0.878408774216418	-5.38535501302623
1783000000	-0.87697268021745	-5.34913640306171
1807750000	-0.917125975188811	-5.79938533575028
1832500000	-0.920741095107428	-5.87601225988416
1857250000	-0.904209192156627	-5.59872850972079
1882000000	-0.885412428372707	-5.42180771018695
1906750000	-0.900162362633889	-5.75071025320064
1931500000	-0.935887543575041	-5.95524365671429
1956250000	-0.896482187100696	-5.66454872582651
1981000000	-0.875068273815465	-5.56273139360075
2005750000	-0.882228978694466	-5.6821088135984
2030500000	-0.939345811256223	-5.94626784102148
2055250000	-0.911815816506168	-5.83407619407858
2080000000	-0.865251268188261	-5.62687533768822
2104750000	-0.886113687482136	-5.67030246967501
2129500000	-0.927010766793818	-5.98039970886581
2154250000	-0.904045419382701	-6.05227031040819
2179000000	-0.857847073843267	-5.94695957794965
2203750000	-0.853784317115512	-5.79121998328238
2228500000	-0.901258209017942	-6.04700806941933
2253250000	-0.901000582997889	-6.07447723998933
2278000000	-0.884109791799891	-5.96230464229683
2302750000	-0.842936790369606	-5.8446478692238
2327500000	-0.87942869189381	-6.06905052705053
2352250000	-0.924065093391825	-6.29100899852491
2377000000	-0.929575147664529	-6.07240174508721
2401750000	-0.881187096217074	-5.97249998787393
2426500000	-0.886887841022627	-6.06697917855224
2451250000	-0.932732578862091	-6.32115167513876
2476000000	-0.951968255689597	-6.24187015996277
2500750000	-0.878733771254458	-6.20027252196475
2525500000	-0.857781189632161	-6.37475421172792
2550250000	-0.937684576647039	-6.502233797542
2575000000	-0.982981968060855	-6.54521314767751
2599750000	-0.910511313744205	-6.45474336183078
2624500000	-0.86452926753206	-6.49017738572962
2649250000	-0.951871838450264	-6.52729253918103
2674000000	-1.01059731276678	-6.89435155680647
2698750000	-0.952496096614325	-6.94486723636874
2723500000	-0.91131839391929	-6.72409995579253
2748250000	-0.958565350775029	-6.85860533110577
2773000000	-1.02342832384574	-7.08129165157196
2797750000	-0.981973768560791	-7.00539132640714
2822500000	-0.942662356214418	-6.91360580568972
2847250000	-0.948006167541062	-7.01803045123496
2872000000	-1.02836022747834	-7.29858587696259
2896750000	-1.0418874893924	-7.34827744739373
2921500000	-0.96777323992344	-7.17261492705121
2946250000	-0.946649299269289	-7.15809971231601
2971000000	-1.01853724506492	-7.34532012610078
2995750000	-1.04667365054937	-7.28012945910221
3020500000	-0.996734792988304	-7.35760587985699
3045250000	-0.964695922101905	-7.37606236351845
3070000000	-0.993970147784464	-7.35909472122267
3094750000	-1.07184946209031	-7.32477748701049
3119500000	-1.0085155185042	-7.49668624286133
3144250000	-0.939828336713647	-7.4802662882385
3169000000	-0.96037635551353	-7.32827072529269
3193750000	-1.05036349781662	-7.19145880626618
3218500000	-1.03627552579035	-7.50469915358248
3243250000	-0.957889252019934	-7.71119415571512
3268000000	-0.945012190485389	-7.3797598482442
3292750000	-1.07833850131689	-7.2163812460379
3317500000	-1.06324713248977	-7.69122037588278
3342250000	-0.971022834849473	-7.83704430682037
3367000000	-0.953328785122737	-7.43986302011745
3391750000	-1.04577717331637	-7.25940093327832
3416500000	-1.07633167700804	-7.4917839195801
3441250000	-1.00368107097476	-7.85578026798081
3466000000	-0.957432853584747	-7.82536520662945
3490750000	-1.02939860485839	-7.49010922923227
3515500000	-1.06052755572642	-7.55937452788329
3540250000	-1.02761180201266	-7.69626461515901
3565000000	-0.973436694842747	-7.79330604174842
3589750000	-0.978127010196648	-7.57826355842388
3614500000	-1.08367451523669	-7.62935500034797
3639250000	-1.05464673173119	-7.90593658592033
3664000000	-0.957719308886032	-7.93802511516809
3688750000	-0.948713752859723	-7.69671597019679
3713500000	-1.06645067587068	-7.51609532614214
3738250000	-1.06541391751842	-7.78518049311005
3763000000	-0.973540021924885	-7.98722465834155
3787750000	-0.977628698511208	-7.97334810061674
3812500000	-1.0611567477745	-7.8087057160993
3837250000	-1.0694350780255	-7.96786905002093
3862000000	-0.979185838021139	-8.39003591553364
3886750000	-0.967843224234801	-8.2219060150111
3911500000	-1.06429148331145	-7.83267419590669
3936250000	-1.06640397520459	-8.20284622460903
3961000000	-1.02787759163339	-8.76479676901748
3985750000	-1.00839533855299	-8.62351384691209
4010500000	-1.03987447757344	-8.21879605453729
4035250000	-1.08215321924015	-8.14109381905465
4060000000	-1.05224587561973	-8.80216026381809
4084750000	-1.03968807259781	-8.90551526337648
4109500000	-1.0394664710754	-8.37282586917537
4134250000	-1.05871664878697	-8.36820676897424
4159000000	-1.0872158207818	-8.84338622216596
4183750000	-1.04467580336438	-9.24986015368455
4208500000	-0.9791814902866	-8.4450862155935
4233250000	-1.03941211162705	-8.27510456625031
4258000000	-1.10570447924008	-9.20188219723333
4282750000	-1.06557750305292	-9.7150550156177
4307500000	-1.00312730078931	-8.81694301068026
4332250000	-1.02778019048381	-8.39496345829913
4357000000	-1.12588111469522	-9.18202051542521
4381750000	-1.0659836220369	-9.84454950970485
4406500000	-0.953022390136885	-9.06575749823423
4431250000	-0.997575432377409	-8.47597977118442
4456000000	-1.10622459992735	-9.15177594167303
4480750000	-1.04848881408877	-9.83890818282936
4505500000	-0.969138008067095	-9.21613152018778
4530250000	-1.00803317428488	-8.79787456035704
4555000000	-1.06841901743733	-9.12442631040865
4579750000	-1.03276208364429	-9.84655761526204
4604500000	-0.988823666138269	-9.6050505895654
4629250000	-1.0386276726787	-9.06011501438562
4654000000	-1.02406237320736	-9.17794178324504
4678750000	-0.999570638013523	-9.57835620904206
4703500000	-1.01938855567454	-9.71537537546225
4728250000	-1.0137424287817	-9.28451157756629
4753000000	-0.992512267714972	-8.93021175561121
4777750000	-1.03099897679494	-9.53196590332582
4802500000	-1.07780579322542	-9.98368170141026
4827250000	-1.00389272546134	-9.72276128012596
4852000000	-0.950003725919989	-9.06196420480754
4876750000	-1.02621157870737	-9.43700538469501
4901500000	-1.06714705064133	-10.2563310618728
4926250000	-1.02786062654917	-10.0531669240657
4951000000	-0.948619603424402	-9.23112267353648
4975750000	-1.04493833022063	-9.50054405918269
5000500000	-1.1369207899442	-10.7007222792276
5025250000	-1.02993197263758	-10.5661847010458
5050000000	-0.985298877332046	-9.3529157723665
5074750000	-1.06045543317629	-9.6582749263297
5099500000	-1.12597675039087	-10.7804139939948
5124250000	-1.00297705584768	-10.3957907625286
5149000000	-0.992433693206413	-9.7718853301425
5173750000	-1.07969922826914	-9.9689964581241
5198500000	-1.1252806306702	-11.0470999656362
5223250000	-1.05916899910344	-10.752033930749
5248000000	-1.06389618852059	-10.1037435201323
5272750000	-1.12062168768692	-10.5760865672305
5297500000	-1.0914326759429	-11.000280853843
5322250000	-1.07061621511985	-10.8278467999955
5347000000	-1.09690546221424	-10.5256988336108
5371750000	-1.11039067975683	-10.6203597344741
5396500000	-1.1225629639173	-10.8961275993534
5421250000	-1.12168209250457	-11.1231012929226
5446000000	-1.16374895875976	-11.1324187932762
5470750000	-1.12563838604854	-10.7391456565551
5495500000	-1.05690135463343	-10.8715521689572
5520250000	-1.15560529768724	-11.4136114291304
5545000000	-1.16149710009923	-11.3319783960821
5569750000	-1.12413490637032	-10.9440336236355
5594500000	-1.09151976356388	-10.9725131251341
5619250000	-1.17279945068123	-11.6644340579566
5644000000	-1.19108465386126	-11.5118276650863
5668750000	-1.0710609624885	-11.1120284341404
5693500000	-1.10853081857948	-10.9507168902892
5718250000	-1.21616154629094	-11.9323079314223
5743000000	-1.10682154088199	-11.6429625738561
5767750000	-1.03708977244448	-10.7828163691263
5792500000	-1.14636293896948	-11.136974943022
5817250000	-1.19429116559516	-12.1819148641241
5842000000	-1.11409403736941	-11.9076708041934
5866750000	-1.04929874217222	-10.8920219284031
5891500000	-1.1424546189468	-11.4687083083475
5916250000	-1.14620048280714	-12.581689513576
5941000000	-1.00578441397371	-11.6741617074851
5965750000	-1.05908936213852	-10.9795708513921
5990500000	-1.14550038172924	-11.5474999872868
6015250000	-1.112593899982	-12.2680594332481
6040000000	-1.03781800054152	-11.7471429190668
6064750000	-1.09205066764384	-11.2875915299366
6089500000	-1.13853015264571	-11.8806701812131
6114250000	-1.09356149574116	-12.0293431459496
6139000000	-1.04927151456882	-11.7714291036443
6163750000	-1.1312797323707	-11.7986993932989
6188500000	-1.04642426995419	-11.9749428530188
6213250000	-1.05125234853993	-12.1072981777773
6238000000	-1.11740015207674	-12.0429414444789
6262750000	-1.15195765598532	-12.1674422954723
6287500000	-1.0282822084445	-11.6536425409184
6312250000	-1.02669167536615	-11.5987204969944
6337000000	-1.14796573256485	-12.1480268002803
6361750000	-1.18584771248871	-13.0198414188921
6386500000	-1.00122205516591	-12.361661727457
6411250000	-1.06891291131906	-11.8214573867261
6436000000	-1.21409686540361	-12.7688486991502
6460750000	-1.17288277447278	-12.927374537659
6485500000	-1.02188675730124	-11.9168439261136
6510250000	-1.10188686673481	-11.716200105842
6535000000	-1.25793000969097	-13.1575007238608
6559750000	-1.19007252676552	-13.5758179826142
6584500000	-1.05450942395237	-12.2808324647186
6609250000	-1.1352794056993	-12.1497054607461
6634000000	-1.28400626996676	-13.356282161304
6658750000	-1.13319525233006	-13.5879575366589
6683500000	-1.08070549938199	-12.4563411779369
6708250000	-1.14998695261082	-12.361034379869
6733000000	-1.21012918081914	-13.5046537131045
6757750000	-1.15943559878007	-13.7021115763071
6782500000	-1.14733125683954	-12.7457333022533
6807250000	-1.2017255913729	-13.042014776313
6832000000	-1.20980552842807	-13.3447025686353
6856750000	-1.16843185311458	-13.4264419740615
6881500000	-1.18832868958748	-13.2715154759789
6906250000	-1.15271521817464	-13.0423998444311
6931000000	-1.1113296350719	-13.012037154889
6955750000	-1.17784175691497	-13.2089185663136
6980500000	-1.2508604867616	-13.676225705675
7005250000	-1.15509045804306	-13.2945919866485
7030000000	-1.09712136857001	-12.8242625690572
7054750000	-1.1618073836309	-13.1583823552828
7079500000	-1.24179158638347	-13.7418351432724
7104250000	-1.08019085788176	-13.4154293117841
7129000000	-1.07997245551698	-12.5615838627917
7153750000	-1.23413792282264	-13.0958627573268
7178500000	-1.2667581864522	-14.4987186795172
7203250000	-1.08534148115364	-13.483811002896
7228000000	-1.08217988134251	-12.7356417484994
7252750000	-1.21891563872877	-13.3097864626758
7277500000	-1.24726999037306	-14.6699543382334
7302250000	-1.11783026181375	-13.5714884277489
7327000000	-1.07711527425126	-12.8440539392965
7351750000	-1.18107620609608	-13.5393164344619
7376500000	-1.21526656905126	-14.336131173528
7401250000	-1.12583745730439	-13.9023071291962
7426000000	-1.13230166707306	-13.063330518039
7450750000	-1.16754921951864	-13.786787914132
7475500000	-1.18909546058304	-14.3166842317368
7500250000	-1.17807173688688	-14.1158925330093
7525000000	-1.16090470109014	-13.6972948254596
7549750000	-1.13564332807179	-13.8573341185881
7574500000	-1.19521686510338	-14.0945407042783
7599250000	-1.23559516663702	-14.4134661968315
7624000000	-1.21465387036504	-14.408748696305
7648750000	-1.1108283679054	-14.156617329424
7673500000	-1.19595066857512	-14.1026832155415
7698250000	-1.28845019171418	-15.0435080974075
7723000000	-1.23639707024783	-15.4691439237359
7747750000	-1.12280611171413	-14.3860537031269
7772500000	-1.24763771402396	-14.2703572416428
7797250000	-1.3391689810326	-15.5665121496955
7822000000	-1.21675707887603	-15.9818765448405
7846750000	-1.15493660727799	-14.3474007435936
7871500000	-1.23672092768466	-14.3968280185313
7896250000	-1.3543264452408	-15.9668444495045
7921000000	-1.25674977848918	-16.2729475120943
7945750000	-1.22514862361401	-14.8711390654879
7970500000	-1.28234919255339	-15.0474448642811
7995250000	-1.32913896434278	-16.362246688249
8020000000	-1.28252014485536	-16.2311225902665
8044750000	-1.19854871084551	-15.1621733031989
8069500000	-1.26973287882555	-15.3232493146902
8094250000	-1.32557193303761	-16.4538027224321
8119000000	-1.29765509933364	-16.6468206241738
8143750000	-1.26707365169837	-15.7758762464197
8168500000	-1.26782931738114	-15.9121366730076
8193250000	-1.30953670507321	-16.5354015693728
8218000000	-1.32148673903421	-16.6051946463382
8242750000	-1.27288795939682	-16.2010400882776
8267500000	-1.19582119264579	-15.8375498860524
8292250000	-1.24069512060016	-15.6748559684672
8317000000	-1.31815263102933	-16.098242092779
8341750000	-1.31830577477464	-16.3239876109614
8366500000	-1.17058447342069	-15.7315403600253
8391250000	-1.21428802324854	-15.1161792229427
8416000000	-1.30976222946415	-15.8984934785721
8440750000	-1.2468965776003	-16.2783162047807
8465500000	-1.15945901094225	-15.4551237159908
8490250000	-1.18938640030241	-14.7207203271945
8515000000	-1.27579227071693	-15.4377988796836
8539750000	-1.24858631867892	-16.1851552336944
8564500000	-1.17050237048183	-15.4017659448871
8589250000	-1.17311347798627	-14.5694402996129
8614000000	-1.2390469256023	-15.1756416051467
8638750000	-1.2570425714294	-16.1053127757997
8663500000	-1.14899291051267	-15.322012195467
8688250000	-1.10647049988296	-14.2125007002979
8713000000	-1.13919984705275	-14.6470053433741
8737750000	-1.25104078363176	-15.6659048823067
8762500000	-1.20670957228631	-15.3105138370402
8787250000	-1.13617498229662	-14.9081067109154
8812000000	-1.14831519516437	-14.7317736816087
8836750000	-1.23161233865276	-15.5352797468212
8861500000	-1.25532783297512	-15.6733248647324
8886250000	-1.14690281968817	-15.1889634986032
8911000000	-1.13926433597183	-15.0254716708291
8935750000	-1.28728181714357	-15.2483300765893
8960500000	-1.26698789374854	-15.8160201109772
8985250000	-1.14258067855181	-16.0974783919168
9010000000	-1.16211331338923	-15.5322164789604
9034750000	-1.29294582511274	-15.3590328396915
9059500000	-1.2594336475851	-16.3992478439852
9084250000	-1.18697498747982	-16.9234671581865
9109000000	-1.24904540120341	-16.2588229727798
9133750000	-1.34192760523679	-15.9606887307585
9158500000	-1.29547939854419	-17.1594990443041
9183250000	-1.26666131741992	-17.7051010740792
9208000000	-1.3568195892906	-17.3017692165937
9232750000	-1.34680532302174	-16.7102724333258
9257500000	-1.30399793243642	-17.6460974595453
9282250000	-1.37552327001453	-18.5933047056448
9307000000	-1.44217779173755	-18.6221458424087
9331750000	-1.36641415765836	-17.858380376606
9356500000	-1.31600053403901	-18.1128801090647
9381250000	-1.46679614082769	-19.049535671366
9406000000	-1.4604388143742	-19.7388902350668
9430750000	-1.29901282146632	-18.9037594417213
9455500000	-1.3001996745476	-18.0650380077699
9480250000	-1.53958262732263	-19.0712564480682
9505000000	-1.47564010652729	-20.3948919010409
9529750000	-1.25600399082384	-19.2178065348447
9554500000	-1.30769903213588	-17.6638619718209
9579250000	-1.53547068481975	-18.7135890838588
9604000000	-1.40902996095988	-20.228996563096
9628750000	-1.21171527253877	-18.9571962020863
9653500000	-1.30098164852522	-17.0718128594453
9678250000	-1.4815694644966	-18.1062125816284
9703000000	-1.39859447711542	-20.2132410865263
9727750000	-1.1965471610495	-18.7867974565064
9752500000	-1.25557450546131	-16.5733188574004
9777250000	-1.33505198843389	-17.0147038492599
9802000000	-1.32796784151796	-18.9833746081726
9826750000	-1.23193583025687	-18.6541233933219
9851500000	-1.22499496061124	-16.4721551236336
9876250000	-1.21068207874384	-15.9167338582463
9901000000	-1.22452138072536	-17.324067074455
9925750000	-1.29159836099243	-18.2111357370385
9950500000	-1.20879496155211	-16.4752520615032
9975250000	-1.07171234643072	-15.3795476961268
10000000000	-1.21910363000161	-16.3502713775046
