!Keysight Technologies N9917A: A.12.46
!Date: Friday, 23 February 2024 20:43:11
!TimeZone: (UTC-03:00) Buenos Aires!Model: N9917A
!Serial: MY56072049
!GPS Latitude: 
!GPS Longitude: 
!GPS TimeStamp: 0001-01-01 00:00:00Z
!GPS Seconds Since Last Read: 0
!CHECKSUM:1937867357
!Correction: S11(ON U)
!S1P File: Measurement: S11:
# Hz S DB R 50
100000000	-0.40130254336596	176.996370595873
124750000	-0.562930209225272	178.67685367573
149500000	-0.239903160850314	178.477785536
174250000	-0.129672043560351	176.272990286334
199000000	-0.525399751603327	175.319183989716
223750000	-0.565466858188144	177.607370139827
248500000	-0.154515120549328	-179.706860312082
273250000	-0.191830398054163	179.212410845671
298000000	-0.582691962540829	175.937538115234
322750000	-0.504592815389486	176.865189648701
347500000	-0.097444898853609	-178.758111114843
372250000	-0.204229003397205	-178.827223516752
397000000	-0.566195762747558	176.832952183606
421750000	-0.416276706101629	177.348739198591
446500000	-0.100373210670694	-176.776681392213
471250000	-0.227075292226256	-175.446257572459
496000000	-0.495990341195124	179.851177280182
520750000	-0.354329515784377	178.968282803051
545500000	-0.163925657503913	-175.755954434558
570250000	-0.224851121757273	-173.407285696978
595000000	-0.328923646841776	-176.799431403294
619750000	-0.352273490254216	-178.221744280262
644500000	-0.302708080993538	-174.89537307417
669250000	-0.190364596217107	-172.720478445689
694000000	-0.167775319181336	-174.164764707791
718750000	-0.373081863500368	-175.999075953498
743500000	-0.491582362137162	-175.751059718874
768250000	-0.185834757906354	-173.681355261011
793000000	-0.0799493555718975	-172.549199006163
817750000	-0.483257050708989	-174.855592730873
842500000	-0.641650398394111	-177.745090596059
867250000	-0.173583222489871	-176.110224861229
892000000	-0.0525581153657716	-172.408924153831
916750000	-0.590208201492824	-174.692986929499
941500000	-0.736732566297936	179.700480558985
966250000	-0.19549928226521	-179.64208375832
991000000	-0.122698360713097	-174.425379074773
1015750000	-0.680869653773774	-176.105343758552
1040500000	-0.758640030856279	176.967106830909
1065250000	-0.276871477854352	176.85248592985
1090000000	-0.245559939512785	-177.320950623788
1114750000	-0.713180474303642	-178.125681092745
1139500000	-0.73840654771465	175.099769843705
1164250000	-0.384708933345368	174.168146608829
1189000000	-0.40178647881852	179.012183203903
1213750000	-0.670678220184204	179.207699586507
1238500000	-0.706439881946115	173.77713578079
1263250000	-0.581327505963293	171.451987213628
1288000000	-0.524853665936919	174.591385795889
1312750000	-0.553258526691764	176.57358805316
1337500000	-0.656303529990544	174.152696007255
1362250000	-0.742377857708231	170.936952989652
1387000000	-0.578251814766448	170.876117575516
1411750000	-0.387928201100458	173.777145168889
1436500000	-0.610589048008647	174.885544730577
1461250000	-0.862105547147827	171.847091753624
1486000000	-0.601783587562728	169.603490058873
1510750000	-0.262303946956216	173.304984551664
1535500000	-0.568017799262755	177.181833810843
1560250000	-0.894719146083706	174.21761882409
1585000000	-0.530463478279819	170.173960348356
1609750000	-0.169373505112941	174.135677621117
1634500000	-0.570744725189761	179.898687461181
1659250000	-0.853474410604721	177.748729420679
1684000000	-0.456837952291495	172.626654684686
1708750000	-0.186768050470915	175.572575462782
1733500000	-0.539122834415712	-177.881833702678
1758250000	-0.764139487497967	-178.341408814174
1783000000	-0.4080929436707	176.170837889616
1807750000	-0.266626580512241	176.764046438622
1832500000	-0.52867357348482	-177.185107225482
1857250000	-0.590349357062085	-175.58637198475
1882000000	-0.384797377334726	-179.88662941022
1906750000	-0.392735161816925	178.243201024097
1931500000	-0.468316761790911	-177.606807041337
1956250000	-0.434779984568168	-173.838721080027
1981000000	-0.413897107372714	-176.355673755182
2005750000	-0.497819252196022	179.473917609908
2030500000	-0.3988801721007	-178.539967071557
2055250000	-0.364092769009889	-173.125017132391
2080000000	-0.526172531242788	-174.283490646996
2104750000	-0.546949238351886	179.250245231854
2129500000	-0.338626605490239	178.897110266621
2154250000	-0.373438343340241	-174.569669526686
2179000000	-0.640691471653792	-173.256295248806
2203750000	-0.539048179855971	-179.900882960855
2228500000	-0.313475209027808	177.470310018194
2253250000	-0.484172683892471	-176.985495952369
2278000000	-0.713283388858535	-174.210136907254
2302750000	-0.464437223630397	-179.859825224332
2327500000	-0.328964119243646	175.856198488543
2352250000	-0.611139940698547	-179.708519691789
2377000000	-0.682447655211201	-175.385050647949
2401750000	-0.392802780418467	-178.956866971936
2426500000	-0.423483445512551	175.645871931479
2451250000	-0.775975492889847	177.205901597454
2476000000	-0.662698863057218	-177.463441699741
2500750000	-0.303791198589924	-178.295106810793
2525500000	-0.508946573520215	175.727970420512
2550250000	-0.885361875954068	174.501495488279
2575000000	-0.56681272629017	-179.883145884075
2599750000	-0.264601019297672	-177.577478726687
2624500000	-0.600669497984987	176.342702852838
2649250000	-0.910173530319354	172.466994559295
2674000000	-0.523248641543307	178.218849182682
2698750000	-0.239968714986765	-176.84019913392
2723500000	-0.632637397871287	178.076947330996
2748250000	-0.869278045847765	172.201288457914
2773000000	-0.53389946465	176.942513808004
2797750000	-0.308878821721198	-176.323177703224
2822500000	-0.551251935390882	-179.595673495029
2847250000	-0.732666784902636	174.039255959219
2872000000	-0.586985212911128	177.331269675985
2896750000	-0.410603065147068	-175.944785907973
2921500000	-0.392520601810298	-177.437738074917
2946250000	-0.59456240582626	176.733226642859
2971000000	-0.734090424543944	178.64228745133
2995750000	-0.494177514890763	-175.517933361523
3020500000	-0.213749869249903	-175.822621695433
3045250000	-0.479839633612323	179.352124389151
3070000000	-0.888116764159414	179.213249147326
3094750000	-0.589826397415355	-176.337720113889
3119500000	-0.029300505524375	-174.803147883734
3144250000	-0.379852682710573	-178.249583391163
3169000000	-1.04671719640037	179.454659474423
3193750000	-0.641399520524044	-178.106467955672
3218500000	0.0936153542365243	-175.661927488288
3243250000	-0.337523646408483	-177.262277934413
3268000000	-1.09572602289351	179.566210798439
3292750000	-0.685802603545117	-179.579964737723
3317500000	0.089221774386161	-176.350011597874
3342250000	-0.344848736335045	-176.246205981037
3367000000	-1.1475495697275	-179.90665954599
3391750000	-0.729969148548621	178.826723798777
3416500000	0.00870726397252412	-178.28093620909
3441250000	-0.297961520015397	-176.950491968051
3466000000	-1.02877610668063	-179.677460365517
3490750000	-0.830506998431262	178.522272204327
3515500000	-0.144782012991123	-179.263256590699
3540250000	-0.30580387713508	-176.778159993881
3565000000	-0.910237705980944	-179.02828471937
3589750000	-0.901032703348136	177.59770124123
3614500000	-0.370472076826989	178.088692687379
3639250000	-0.19230270964516	-178.493379546007
3664000000	-0.7435739315782	-178.241590177639
3688750000	-1.05850773340493	178.022797951551
3713500000	-0.615940042660606	176.589122427535
3738250000	-0.170656700577228	179.04514079592
3763000000	-0.576853479977563	-179.768529185114
3787750000	-1.14674133855234	177.903985888297
3812500000	-0.742394358856053	176.075552455988
3837250000	-0.118667082925451	177.937249852359
3862000000	-0.477354153482338	179.489438027974
3886750000	-1.20815884829658	177.56359654936
3911500000	-0.848946498293224	175.231991981698
3936250000	-0.0824653348137862	176.34491948549
3961000000	-0.400460852444845	179.297356509958
3985750000	-1.15456053595711	-179.899836345429
4010500000	-0.879570488539196	177.816924452831
4035250000	-0.163590521117677	176.069135765861
4060000000	-0.353688224025557	178.383110201991
4084750000	-1.01319498910851	-178.375296585413
4109500000	-0.890247695172552	-179.561211502977
4134250000	-0.327466425472773	176.22690508021
4159000000	-0.316028328410535	177.942608246345
4183750000	-0.772645871653024	-175.798851880111
4208500000	-0.900846258140073	-177.153244153103
4233250000	-0.539691936318837	175.316198253616
4258000000	-0.262924958849682	176.01229365367
4282750000	-0.49018681311189	-174.986773441486
4307500000	-0.9098206422421	-174.662401390175
4332250000	-0.787869575036893	176.29580887071
4357000000	-0.235186180952558	175.705295680305
4381750000	-0.266848651453593	-174.55721169365
4406500000	-0.921918257889628	-172.703005740169
4431250000	-0.92505961213042	179.13973985625
4456000000	-0.241794835243957	177.4781386734
4480750000	-0.208257083060926	-174.798454051358
4505500000	-0.958577507374897	-172.938364433301
4530250000	-1.02192364798199	-179.837941015494
4555000000	-0.254130716515915	177.650360299283
4579750000	-0.276661853414091	-177.959892389366
4604500000	-0.997544295165457	-175.861867172864
4629250000	-0.937573293272066	-178.638579823799
4654000000	-0.321835273973145	179.615049081805
4678750000	-0.406732434229805	-179.28855956701
4703500000	-0.941518447110889	-177.037494882155
4728250000	-0.897608623409857	-176.435512226922
4753000000	-0.538900254036297	179.864340581589
4777750000	-0.60344701846847	176.332187807304
4802500000	-0.824822085711423	179.697604787521
4827250000	-0.748830795343134	-175.408079130765
4852000000	-0.725653165846019	-179.700445257909
4876750000	-0.790786956393512	173.554603918752
4901500000	-0.658748864527858	177.386670422405
4926250000	-0.7200791273155	-175.602742154421
4951000000	-0.990283668943002	179.244954021535
4975750000	-0.905975451308655	170.837124880626
5000500000	-0.508885317945697	176.369787176157
5025250000	-0.682497475212343	-175.02244400997
5050000000	-1.16611786540103	178.454484116534
5074750000	-0.869653610127677	169.926962780361
5099500000	-0.375705829582216	175.814037976584
5124250000	-0.745102412960113	-176.079318898005
5149000000	-1.24227365565538	178.083450713684
5173750000	-0.742017739097226	171.343382839817
5198500000	-0.400149008816736	176.098847523344
5223250000	-0.915365976244501	-178.999015335532
5248000000	-1.24289945529082	176.806713763635
5272750000	-0.618677129475648	173.60463246516
5297500000	-0.462770912582302	177.925686171606
5322250000	-0.988172386645602	-179.681201772545
5347000000	-1.05884155075523	177.792755488543
5371750000	-0.499515986048824	176.842523351887
5396500000	-0.552765077684422	177.951449298762
5421250000	-1.00404741274786	178.265612614531
5446000000	-0.782255949309214	179.42876003632
5470750000	-0.467101644846978	-179.539367210622
5495500000	-0.690777071886753	178.379381431248
5520250000	-0.969706366077127	177.322454086504
5545000000	-0.602301298656077	-178.92583630743
5569750000	-0.491048341880844	-177.634850576373
5594500000	-0.813301405800747	177.522014928545
5619250000	-0.745437875046876	178.558167650749
5644000000	-0.436835755463294	-173.822987162234
5668750000	-0.674860548167948	-174.919343108045
5693500000	-0.870838644389977	176.384786557846
5718250000	-0.469795119634671	178.094220617026
5743000000	-0.433426715812783	-172.686081855413
5767750000	-0.871689703146348	-175.120648459549
5792500000	-0.796948834641976	175.868643441112
5817250000	-0.316041924243772	179.80050602777
5842000000	-0.505254710994243	-172.467696632989
5866750000	-1.03989251935845	-177.322644171708
5891500000	-0.659325127375906	175.566982729721
5916250000	-0.163386393112987	-177.605655472113
5941000000	-0.657387741859498	-171.068203242096
5965750000	-1.15433012428883	-177.325744294004
5990500000	-0.525224135689143	176.906604534399
6015250000	-0.216598928375193	-177.32956968169
6040000000	-0.839553850408455	-173.719802033883
6064750000	-1.06114676811502	-178.979344026265
6089500000	-0.408273228434212	179.236734429033
6114250000	-0.381143987522035	-177.532498161713
6139000000	-1.00705855703835	-177.986757050915
6163750000	-0.86931975107308	179.361340092244
6188500000	-0.382715299808496	-179.133998799538
6213250000	-0.647338342742935	-179.124585634995
6238000000	-1.00093865745211	178.761089039673
6262750000	-0.656705460362791	-178.952304029734
6287500000	-0.501720714479121	-175.95027799131
6312250000	-0.994697870716731	178.726723431934
6337000000	-0.972074091067499	174.615231664136
6361750000	-0.488099356219194	-178.664877425301
6386500000	-0.703130856131129	-175.268011456975
6411250000	-1.20225440388274	176.461550121687
6436000000	-0.785189821881662	173.593235119304
6460750000	-0.468943686843714	-176.12204774787
6485500000	-0.984204494378566	-174.657384232948
6510250000	-1.2504125351308	173.995637167953
6535000000	-0.635429971274574	172.553495113879
6559750000	-0.474583321192786	-176.269792098928
6584500000	-1.15629371890201	-175.0981243192
6609250000	-1.20666290341593	174.113295962671
6634000000	-0.468960456972285	174.242018872224
6658750000	-0.597623422503016	-174.95788406195
6683500000	-1.24118108130149	-175.049654857076
6708250000	-1.03683494892183	175.800717801199
6733000000	-0.478484169598299	176.625210143546
6757750000	-0.81325462098041	-176.721821105251
6782500000	-1.19814306843536	-177.316781822691
6807250000	-0.770333086328913	178.899339890019
6832000000	-0.611590453256096	179.999366197512
6856750000	-0.988077045002235	-178.034919668506
6881500000	-0.958103274206441	-177.598940411439
6906250000	-0.588053401113193	-176.84005905565
6931000000	-0.812565384363784	-177.8527083156
6955750000	-1.09810472804221	178.824320795124
6980500000	-0.673140741525402	-178.936023078872
7005250000	-0.46935676515779	-173.19648706388
7030000000	-1.05167330095809	-175.974006268776
7054750000	-1.06895745356485	177.192970915542
7079500000	-0.465517398815264	-178.557268171715
7104250000	-0.545268850283687	-171.104902784428
7129000000	-1.2154922580609	-177.243825721592
7153750000	-0.940812917917018	173.907292386041
7178500000	-0.273223479973981	-179.461304995115
7203250000	-0.647842633886952	-170.77598839101
7228000000	-1.24924929362525	-178.412957940535
7252750000	-0.78049123923956	173.181584957844
7277500000	-0.272216617143738	-179.606851044486
7302250000	-0.79090257585058	-172.402569004949
7327000000	-1.17958270026098	-179.541251677593
7351750000	-0.636577545710749	173.328415583219
7376500000	-0.43231375680899	179.235155555034
7401250000	-0.906835402202474	-175.658204231723
7426000000	-0.894070989635591	179.233102342111
7450750000	-0.559749035176015	174.723141339331
7475500000	-0.677207282419703	177.608879563706
7500250000	-0.882385211219857	-179.655434731679
7525000000	-0.638784995231641	179.341356407903
7549750000	-0.63358486907595	177.234486045146
7574500000	-0.95834864667573	174.764479144968
7599250000	-0.800314758772314	175.234172878304
7624000000	-0.419550484974196	178.941468776231
7648750000	-0.765333004747532	178.895626595124
7673500000	-1.12044317064338	172.843776967184
7698250000	-0.658220148226066	172.317553285826
7723000000	-0.381487613323402	179.694552596932
7747750000	-0.907243901069461	-179.749069423434
7772500000	-1.16571438695242	171.35209211264
7797250000	-0.520862611647803	171.414810994064
7822000000	-0.423478371052324	-178.141165422592
7846750000	-1.05009323789667	-177.705209216298
7871500000	-1.12862706741878	171.388967382377
7896250000	-0.510494319929757	171.244646154903
7921000000	-0.609944652037716	-177.784441333568
7945750000	-1.07613148271513	-177.145787967141
7970500000	-0.913201270743981	173.942952140532
7995250000	-0.568763965789789	174.513928884007
8020000000	-0.808218839845229	-176.570528903724
8044750000	-1.0280497539896	-177.257343824092
8069500000	-0.802049440891892	175.477338516184
8094250000	-0.704575256519171	176.553966945286
8119000000	-0.966267161850719	-176.572055405037
8143750000	-0.88336703346645	-175.790835626978
8168500000	-0.66196784156817	-179.734928493861
8193250000	-0.882980686577711	-179.611891615672
8218000000	-0.979539046419796	-175.359425037745
8242750000	-0.668215066335818	-171.981608629067
8267500000	-0.748243937352063	-172.173116244125
8292250000	-1.18149753652571	-175.330581944198
8317000000	-0.99878029013246	-176.449602405498
8341750000	-0.514553181326279	-171.770895585078
8366500000	-0.805169906295447	-168.125250794836
8391250000	-1.27869983046052	-172.69398671934
8416000000	-0.891281983609676	-176.933063202777
8440750000	-0.51226669305024	-171.361058419333
8465500000	-0.939403627039297	-165.832094275649
8490250000	-1.3067310678864	-171.695220993015
8515000000	-0.828280421344386	-178.418385815716
8539750000	-0.579713832231899	-172.728245970477
8564500000	-0.985694028678852	-166.474510419558
8589250000	-1.12901520969784	-172.025510831851
8614000000	-0.738961435851532	-178.430798467142
8638750000	-0.708746355090826	-173.549643370569
8663500000	-0.967771234478651	-167.09268294205
8688250000	-0.979270576680323	-171.721022880529
8713000000	-0.889523936674133	-179.648717928612
8737750000	-0.931081784806741	-178.437425295388
8762500000	-0.793783140179057	-173.390586754976
8787250000	-0.728061458592331	-173.827926094582
8812000000	-1.08677242319222	-179.653408341204
8836750000	-1.14323004391819	178.022809502782
8861500000	-0.589529421696051	-179.178664074347
8886250000	-0.55428912711366	-177.480897961816
8911000000	-1.25515312740027	178.89286864352
8935750000	-1.16379953978351	174.518980687391
8960500000	-0.355321700821882	175.283785529387
8985250000	-0.552282839635043	179.259482098501
9010000000	-1.40276664780704	177.656768606677
9034750000	-1.12526107677032	171.324102481645
9059500000	-0.206258071911968	170.841838777448
9084250000	-0.598699325933235	174.801365747233
9109000000	-1.40827340668614	176.01257335175
9133750000	-0.924098351573456	171.297371414312
9158500000	-0.246062290821771	168.736598227072
9183250000	-0.772206557361554	171.783271921693
9208000000	-1.23508085203812	174.703449487312
9232750000	-0.704355054081973	172.86532146588
9257500000	-0.422932966327519	169.596222733308
9282250000	-0.900887181203975	170.854188026317
9307000000	-0.936113486990729	176.042465358956
9331750000	-0.532126358771398	177.654010910266
9356500000	-0.761932515250466	172.852495785873
9381250000	-0.955136861330766	171.854418202473
9406000000	-0.518914042553965	179.547797813412
9430750000	-0.512346374231515	-174.573383957327
9455500000	-1.22110051405513	179.622289656997
9480250000	-0.957669517112228	174.731372924223
9505000000	-0.216516014220071	-176.70586955379
9529750000	-0.690244817399378	-168.45355503023
9554500000	-1.59110707189266	-174.252333496268
9579250000	-0.899744082609203	177.907938514688
9604000000	0.00203847011085735	-174.138789277958
9628750000	-0.905014539258195	-163.78926427755
9653500000	-1.78269104596557	-169.144097171248
9678250000	-0.771860182903172	-178.747723101897
9703000000	0.0180444494938604	-172.251609858817
9727750000	-1.06705855322	-159.776559470196
9752500000	-1.74247963147346	-162.42571063175
9777250000	-0.81742911169684	-174.296481652367
9802000000	-0.309431009030431	-173.47176904478
9826750000	-1.09922509808924	-161.373014119285
9851500000	-1.39945029087135	-158.395229156544
9876250000	-0.907112953236355	-168.553158182478
9901000000	-0.833676145334806	-175.110769198574
9925750000	-1.1381975861758	-167.27265144968
9950500000	-1.01911262946316	-159.946258550584
9975250000	-1.05976222077196	-167.276012094988
10000000000	-1.33160046917624	-179.086787383801
