!Keysight Technologies N9917A: A.12.46
!Date: Thursday, 16 November 2023 19:13:08
!TimeZone: (UTC-03:00) Buenos Aires!Model: N9917A
!Serial: MY56072049
!GPS Latitude: 
!GPS Longitude: 
!GPS TimeStamp: 0001-01-01 00:00:00Z
!GPS Seconds Since Last Read: 0
!CHECKSUM:1372796828
!Correction: S11(Rdy)
!S1P File: Measurement: S11:
# Hz S RI R 50
30000	0.992746927435849	-0.104530194216536
90029850	0.955608443174161	-0.0495345303935111
180029700	0.933628972061674	-0.0303900067600773
270029550	0.914272764603687	-0.0686560057112227
360029400	0.895777161266466	-0.120730615386238
450029250	0.882999278971277	-0.182512177743566
540029100	0.87418910985421	-0.222601663915156
630028950	0.867986671559243	-0.254524339301679
720028800	0.858155987761254	-0.280185717674651
810028650	0.839695849179748	-0.302341784882743
900028500	0.81333415656544	-0.320607565681874
990028350	0.792566909784314	-0.322382159034389
1080028200	0.779359771064564	-0.31330478190838
1170028050	0.771757795269996	-0.300562248125321
1260027900	0.7735047371773	-0.287709792210901
1350027750	0.778208975428156	-0.284913778567974
1440027600	0.792973654671866	-0.290613844915181
1530027450	0.789466258641619	-0.326377580446503
1620027300	0.69904927827283	-0.306304276771506
1710027150	0.671844884153438	-0.181821878894035
1800027000	0.72483032789412	-0.121625873318783
1890026850	0.770911182369449	-0.159627167922513
1980026700	0.780037959088563	-0.253019815212888
2070026550	0.75504046715028	-0.349737841343187
2160026400	0.716370945460992	-0.410756608141284
2250026250	0.699453051111093	-0.412251489886174
2340026100	0.706571978523946	-0.372781972536372
2430025950	0.727004280253654	-0.328760408727614
2520025800	0.739706138141742	-0.309561311587183
2610025650	0.734812544956355	-0.331786765956417
2700025500	0.712879134166204	-0.376554790926036
2790025350	0.682529076424573	-0.412906698845188
2880025200	0.657752019883017	-0.431929183125083
2970025050	0.648442096090437	-0.435911800867489
3060024900	0.647666089091285	-0.428103190188724
3150024750	0.652440259678557	-0.420030041612689
3240024600	0.650713386430644	-0.42200017729332
3330024450	0.638248087559384	-0.432018830808992
3420024300	0.6287360922793	-0.433232186007632
3510024150	0.618516018808779	-0.437366351617416
3600024000	0.61926445251759	-0.433520682352348
3690023850	0.618832665902219	-0.440123379152614
3780023700	0.608411953510973	-0.45109770652262
3870023550	0.596693414365975	-0.45636907253266
3960023400	0.576879536412343	-0.463692805356197
4050023250	0.570982268871632	-0.455111967403115
4140023100	0.571322775169893	-0.449072513178565
4230022950	0.577547138666044	-0.445480648734255
4320022800	0.566122559668455	-0.469959477966934
4410022650	0.540001497613324	-0.500353193974952
4500022500	0.521095305455412	-0.51161890487361
4590022350	0.514964609605151	-0.499536524508482
4680022200	0.516402553367761	-0.485168528242276
4770022050	0.53323113963982	-0.463094039824009
4860021900	0.541261761041303	-0.462438133043295
4950021750	0.539350049537735	-0.474580454041733
5040021600	0.519161410272254	-0.498129555696575
5130021450	0.488531935457074	-0.515603380122469
5220021300	0.470980515941537	-0.513710546591971
5310021150	0.458005432247035	-0.512335987753263
5400021000	0.457693198095018	-0.501121639002601
5490020850	0.458683604163509	-0.496140932732808
5580020700	0.456539436659733	-0.498149770599464
5670020550	0.451737580715052	-0.508589507772023
5760020400	0.433863734036507	-0.524213272536618
5850020250	0.417706560341327	-0.531676448041026
5940020100	0.39500413824704	-0.543124158295207
6030019950	0.390018502368183	-0.528472011958449
6120019800	0.40561285815073	-0.513256737127907
6210019650	0.415808566732026	-0.503496670338582
6300019500	0.422942309641474	-0.506834781080967
6390019350	0.407097948301397	-0.520943088536684
6480019200	0.387015711184327	-0.536854897133006
6570019050	0.354306637115649	-0.545024142294324
6660018900	0.329633146183376	-0.544100581893611
6750018750	0.337190706535962	-0.52500776732582
6840018600	0.352885203843184	-0.512316582580362
6930018450	0.364295536553189	-0.509112830107234
7020018300	0.356268079809549	-0.523590788505334
7110018150	0.343070624478544	-0.531685586112828
7200018000	0.314080585451286	-0.534505620299338
7290017850	0.29929508599928	-0.526298327729056
7380017700	0.307064224610831	-0.507197341323677
7470017550	0.327877360296424	-0.491392447221141
7560017400	0.346204465619131	-0.487669171178229
7650017250	0.333332349312274	-0.503075926952685
7740017100	0.303920173752635	-0.519405033777393
7830016950	0.266225647868823	-0.531433540895212
7920016800	0.243343807097212	-0.527212344851016
8010016650	0.246172352357758	-0.51890193531796
8100016500	0.254627514647869	-0.509883047004945
8190016350	0.259543295871898	-0.51147565664151
8280016200	0.266435645998508	-0.522336545314095
8370016050	0.250354332615245	-0.530581241824966
8460015900	0.231719910823953	-0.529978440476067
8550015750	0.223765401186255	-0.517285260393309
8640015600	0.236092370602837	-0.498844706718216
8730015450	0.275049525430463	-0.474003160438182
8820015300	0.298167205239704	-0.472556777748453
8910015150	0.292026727656686	-0.484080748070168
9000015000	0.265109752781381	-0.497424100845933
9090014850	0.230019733483366	-0.494307166848167
9180014700	0.214106166099202	-0.481196689693855
9270014550	0.210260594826009	-0.468642704349733
9360014400	0.21680411150213	-0.469028993447498
9450014250	0.21466350377818	-0.493202522708966
9540014100	0.195909471292208	-0.52086889981546
9630013950	0.159347980287913	-0.538237383753731
9720013800	0.127451514713259	-0.534456974699785
9810013650	0.147798626045427	-0.498410592776756
9900013500	0.214322288311386	-0.459684368066884
9990013350	0.26869066657609	-0.443007254704595
10080013200	0.28893377157233	-0.456227124067165
10170013050	0.25748509845322	-0.478677342521094
10260012900	0.197069617441884	-0.481927206238678
10350012750	0.154388358433437	-0.458122137729345
10440012600	0.147248491543821	-0.418192755718727
10530012450	0.173939979453211	-0.406402998368404
10620012300	0.187630930117952	-0.428821628233068
10710012150	0.16688978039338	-0.474214218814484
10800012000	0.112767605915301	-0.508771654955076
10890011850	0.0544763201757609	-0.510199137979006
10980011700	0.0330700268588011	-0.493289684460021
11070011550	0.0648589256181296	-0.467087823777505
11160011400	0.151745107483933	-0.44612733646907
11250011250	0.237174493684536	-0.434758755571671
11340011100	0.263506440082517	-0.446458634082312
11430010950	0.247163480757548	-0.459025981180796
11520010800	0.188269872833624	-0.456215012046019
11610010650	0.139724021489605	-0.431278332843006
11700010500	0.141885971252736	-0.377616931614444
11790010350	0.155328309286816	-0.345694169737642
11880010200	0.168830459516396	-0.357515605994706
11970010050	0.149378543938449	-0.40071780201486
12060009900	0.0909000523900946	-0.445926276684607
12150009750	0.0266739513110111	-0.465593777329152
12240009600	-0.0177387481931831	-0.45130143517903
12330009450	0.00607626133490888	-0.430944204735223
12420009300	0.0658235915127881	-0.418464433265283
12510009150	0.133660869972881	-0.419331422537898
12600009000	0.174664144766911	-0.431045051679911
12690008850	0.172481563752455	-0.44019133538893
12780008700	0.156589074808233	-0.426145971553235
12870008550	0.151470299234497	-0.392639940391204
12960008400	0.167188500220476	-0.356432496148451
13050008250	0.18366642814755	-0.337729241101987
13140008100	0.18923868940448	-0.345285663370659
13230007950	0.155132465581884	-0.371142236510641
13320007800	0.102772998957651	-0.394027694885386
13410007650	0.0540631919828246	-0.385480521349931
13500007500	0.0487582654016391	-0.366343312449359
13590007350	0.0751727121267489	-0.359269971991499
13680007200	0.100404686624663	-0.393983748071809
13770007050	0.0952337686657239	-0.428801936879915
13860006900	0.0695395071481184	-0.446511243337135
13950006750	0.0386889548306013	-0.426792276691943
14040006600	0.0458735406821568	-0.386414102830179
14130006450	0.0961645641539449	-0.351833268738201
14220006300	0.169326699883136	-0.331865031533384
14310006150	0.20539218140943	-0.352502411585316
14400006000	0.190733101837802	-0.389241880330403
14490005850	0.132181503078649	-0.412283578465677
14580005700	0.0604663346870197	-0.388507114593456
14670005550	0.0322957399942333	-0.334100755016944
14760005400	0.0711539035809463	-0.280190843573638
14850005250	0.142693522490522	-0.26887839754894
14940005100	0.191959329193033	-0.313473751270775
15030004950	0.180578117804511	-0.374938980050144
15120004800	0.112802101410997	-0.421283183566129
15210004650	0.0330625772896121	-0.420404509350854
15300004500	-0.00551890862920709	-0.381024085235144
15390004350	0.023074367770828	-0.339562015192855
15480004200	0.105047291863598	-0.318047316559209
15570004050	0.190409520102305	-0.358191961889622
15660003900	0.203771178732563	-0.409525283174897
15750003750	0.163639922333264	-0.458133445279069
15840003600	0.0941644055701335	-0.459467793708987
15930003450	0.0530083456054694	-0.418108203766683
16020003300	0.0701747394010923	-0.368470817102528
16110003150	0.145086238999703	-0.314957601502733
16200003000	0.195343962075647	-0.340723655657351
16290002850	0.197605389257092	-0.384423234357398
16380002700	0.142799196547185	-0.431579736948074
16470002550	0.0565751179311307	-0.431990295955207
16560002400	0.0080758602528381	-0.405929939683634
16650002250	0.00121568108958801	-0.379445012594691
16740002100	0.0279988732868577	-0.368016561290936
16830001950	0.0645641337897747	-0.386595331020112
16920001800	0.0672780250138451	-0.426989760312587
17010001650	0.058193094194928	-0.441465739759738
17100001500	0.029703108177692	-0.439755435640255
17190001350	0.0395946719847133	-0.407635611438353
17280001200	0.0587523739168065	-0.374198564704429
17370001050	0.0995278996063567	-0.351314414861769
17460000900	0.127523746445852	-0.347311631114272
17550000750	0.1250600216698	-0.366179299559155
17640000600	0.0946215583442462	-0.36567012047646
17730000450	0.0599354128700525	-0.352626120632128
17820000300	0.0572043077111421	-0.32485376014882
17910000150	0.0699946930562961	-0.319582888511248
18000000000	0.0812098860716162	-0.336587001573233
