!Keysight Technologies N9917A: A.12.46
!Date: Thursday, 16 November 2023 19:06:46
!TimeZone: (UTC-03:00) Buenos Aires!Model: N9917A
!Serial: MY56072049
!GPS Latitude: 
!GPS Longitude: 
!GPS TimeStamp: 0001-01-01 00:00:00Z
!GPS Seconds Since Last Read: 0
!CHECKSUM:1017487481
!Correction: S11(Rdy)
!S1P File: Measurement: S11:
# Hz S DB R 50
30000	-0.0193165657748024	-6.03519065597005
90029850	-0.382084602697291	-3.58488069370513
180029700	-0.555837478747402	-3.28409342225926
270029550	-0.702922888826024	-6.39423297981719
360029400	-0.825940093968538	-10.4537140214319
450029250	-0.86004336923507	-15.2546889731249
540029100	-0.857754500520544	-18.5851755282084
630028950	-0.840391933113319	-21.3316895807048
720028800	-0.845538292398182	-23.5624019957934
810028650	-0.90243868044741	-25.8563087266284
900028500	-1.05228436465901	-28.1869076800545
990028350	-1.24471809895904	-29.6107241797525
1080028200	-1.43918512994446	-30.2504453321709
1170028050	-1.5876972287931	-30.3616761828854
1260027900	-1.67256114076643	-30.2817349432293
1350027750	-1.67940487721893	-30.8841173994649
1440027600	-1.51691395424232	-31.9498191494592
1530027450	-1.28226496162856	-34.6837999335883
1620027300	-1.85838085125149	-37.8846508990371
1710027150	-2.7594772970312	-32.7375238114429
1800027000	-2.64813424015826	-26.5355183003938
1890026850	-2.12907401944792	-26.9254163623641
1980026700	-1.74496468983546	-32.2445848655367
2070026550	-1.56526273870991	-39.238747657133
2160026400	-1.57212457777384	-45.4689986765872
2250026250	-1.69162799852467	-47.9749802974466
2340026100	-1.8419890961898	-47.227241637201
2430025950	-1.91414628432109	-44.3512857281252
2520025800	-1.90053837034962	-42.7044924683182
2610025650	-1.85413801670017	-44.040285555906
2700025500	-1.85999051718071	-47.8253127098208
2790025350	-1.92372776662861	-52.298906951733
2880025200	-2.03233153119718	-55.6849614681486
2970025050	-2.14095529704486	-57.3307644485528
3060024900	-2.19561722918808	-57.446796547175
3150024750	-2.20726588191631	-56.882826140184
3240024600	-2.23293407486345	-57.1256888301534
3330024450	-2.24965031786763	-58.6051811994204
3420024300	-2.33667483876859	-59.6609266748669
3510024150	-2.41404292428471	-61.1596452647076
3600024000	-2.48116177472782	-61.4540450075507
3690023850	-2.47527385913481	-62.1322871611091
3780023700	-2.48082460984248	-63.685003689979
3870023550	-2.52896139356369	-65.2347697915828
3960023400	-2.62647526786908	-67.9102770502064
4050023250	-2.75312904010781	-68.7462760037819
4140023100	-2.83355727493622	-68.668785523974
4230022950	-2.86374098255617	-67.7376006328811
4320022800	-2.78729772029773	-68.9118781706804
4410022650	-2.71639625640486	-71.7287744483934
4500022500	-2.73284943044352	-73.8665289947787
4590022350	-2.84888315738012	-75.3132331407579
4680022200	-2.97508313598341	-75.5275689821028
4770022050	-3.09544364609869	-74.0292046517084
4860021900	-3.09671769222786	-73.2196312972676
4950021750	-3.05094021127374	-73.9527942749354
5040021600	-3.00958416552391	-76.4105938095743
5130021450	-3.03425955401259	-79.628871392146
5220021300	-3.1797660477699	-82.1496917757568
5310021150	-3.29446964383325	-84.1263820850383
5400021000	-3.43164890717455	-84.4395774238027
5490020850	-3.50732522707751	-84.1192293207084
5580020700	-3.54949328257917	-84.1610948744112
5670020550	-3.48399363082254	-83.4263716358725
5760020400	-3.45215459041726	-84.869900499054
5850020250	-3.43954317940729	-86.7341122701799
5940020100	-3.46646895581882	-89.3344111995029
6030019950	-3.61064187490342	-90.7719678575968
6120019800	-3.75238659629417	-90.2072945998706
6210019650	-3.84534950641571	-89.64376416708
6300019500	-3.82598570101141	-88.3082650439251
6390019350	-3.8061409086992	-89.4500516079016
6480019200	-3.79372709846755	-90.9512708071972
6570019050	-3.86382671112893	-94.5957689523668
6660018900	-3.99565613588039	-97.7002185536771
6750018750	-4.2211215461174	-98.0546542310469
6840018600	-4.32887434320216	-96.7154438835619
6930018450	-4.32668829228078	-94.3768350585595
7020018300	-4.21376209120443	-93.8569134023726
7110018150	-4.17169726332797	-94.5186514590067
7200018000	-4.22386548985919	-97.5862242486337
7290017850	-4.37272122133955	-100.188873427425
7380017700	-4.58742145630418	-101.019461989079
7470017550	-4.76920658511174	-99.8876632707558
7560017400	-4.73890791071151	-97.6122041225616
7650017250	-4.60102477333166	-98.0252722016562
7740017100	-4.52366037636954	-100.53395148382
7830016950	-4.49407048853683	-103.988441493664
7920016800	-4.62685012156832	-107.579201216675
8010016650	-4.82057549206553	-108.162100971454
8100016500	-4.91177517041076	-107.917337666836
8190016350	-4.94169487986733	-106.311998741635
8280016200	-4.81208417344005	-103.12892983778
8370016050	-4.68562784825238	-103.379631017248
8460015900	-4.73137595501924	-105.021217290456
8550015750	-4.91833064918945	-106.755020567214
8640015600	-5.14279616045431	-106.910484607275
8730015450	-5.39932797967284	-104.125705951979
8820015300	-5.34944454096757	-101.265620942769
8910015150	-5.19527287406936	-101.64975119277
9000015000	-5.06968389833792	-104.578989010449
9090014850	-5.10778608666237	-109.731964213763
9180014700	-5.3158645979401	-113.518413716907
9270014550	-5.53863880906976	-114.841478434731
9360014400	-5.62348776797787	-113.342837397032
9450014250	-5.43117885829765	-109.940221980783
9540014100	-5.09018819804961	-109.312147802027
9630013950	-4.86715522363695	-111.301072227806
9720013800	-4.84637695240608	-115.038143773745
9810013650	-5.23852032267353	-115.878969607245
9900013500	-5.78683064681215	-110.449936545802
9990013350	-5.98279390136068	-103.720519657017
10080013200	-5.75677872448891	-99.761919631819
10170013050	-5.45405175775625	-102.678357796257
10260012900	-5.41473977743224	-110.556413013225
10350012750	-5.67955109246554	-118.998221993638
10440012600	-6.23201406786971	-125.128805575733
10530012450	-6.63817889533206	-123.790249806999
10620012300	-6.47977635682784	-119.096629278098
10710012150	-5.78616209726626	-115.155981200588
10800012000	-5.27440280646109	-115.553866306676
10890011850	-5.12446044643486	-119.684304885628
10980011700	-5.35508241014721	-122.937327363989
11070011550	-5.83413812677173	-122.772576825041
11160011400	-6.2878466774982	-115.412887795709
11250011250	-6.34511737692609	-104.826756895903
11340011100	-6.07448527616113	-98.7587318582906
11430010950	-5.78778392967416	-99.7707914501932
11520010800	-5.81135696210636	-107.940287638577
11610010650	-6.10025439201473	-118.031936291428
11700010500	-6.82836752723234	-124.876659152122
11790010350	-7.45256452939972	-128.493861702786
11880010200	-7.5793761747082	-126.56612600069
11970010050	-6.95109329669979	-123.752780512809
12060009900	-6.16315954079082	-124.062511767502
12150009750	-5.69136483007001	-127.156622176657
12240009600	-5.66837040280926	-131.577512810773
12330009450	-6.13356802938299	-131.347782091022
12420009300	-6.73359682991603	-125.786959412153
12510009150	-6.9341445450937	-116.663182557067
12600009000	-6.75918168678566	-109.015102972728
12690008850	-6.5518021194861	-108.909043395344
12780008700	-6.7023347545492	-112.002359980591
12870008550	-7.19778040668998	-116.370452537
12960008400	-7.86419390502342	-118.750511339312
13050008250	-8.38583860813382	-120.035453012473
13140008100	-8.36661170443053	-118.698173163692
13230007950	-7.87833386860333	-121.585055525944
13320007800	-7.22829031764177	-125.338458911661
13410007650	-7.05456834086395	-131.626188687752
13500007500	-7.45467845240816	-134.00831229225
13590007350	-7.93669794516466	-131.407673055834
13680007200	-7.67497123672998	-123.178890920118
13770007050	-7.00137610459917	-119.149256065308
13860006900	-6.57277147286498	-119.199357089576
13950006750	-6.61936800618973	-124.287102352139
14040006600	-7.33438485347514	-128.022181132778
14130006450	-8.22657010758732	-125.975537337689
14220006300	-9.01736937095309	-118.467296029272
14310006150	-8.75934204020115	-110.190032451512
14400006000	-8.03856626267562	-108.835357942729
14490005850	-7.32139651767174	-114.647925187823
14580005700	-7.38877841307346	-125.934270600054
14670005550	-7.97261126469474	-136.300853494735
14760005400	-9.28109965993	-141.702704236278
14850005250	-10.6105164704226	-134.486961832494
14940005100	-10.2401385556654	-119.328018056933
15030004950	-8.75025443518481	-113.088286921293
15120004800	-7.57884546985953	-117.586366902895
15210004650	-7.0988943027342	-126.190180897279
15300004500	-7.41676877800805	-134.739704800995
15390004350	-8.41650523022229	-137.849419327123
15480004200	-9.7660868182742	-130.400513214294
15570004050	-9.38411315356574	-110.826591869032
15660003900	-8.06528865516947	-103.361794601868
15750003750	-6.96456215810881	-104.85008411987
15840003600	-6.68948784073668	-113.060940645288
15930003450	-7.09590524167002	-121.814032282925
16020003300	-8.08994040788965	-125.778009739679
16110003150	-9.6591634616954	-122.259456381207
16200003000	-9.58570569998957	-112.19092659072
16290002850	-8.54624608179625	-107.301478567559
16380002700	-7.37822147815717	-112.100546363334
16470002550	-6.99040111071703	-121.753431188579
16560002400	-7.12567457129755	-129.426996174962
16650002250	-7.63226895838908	-133.656601345853
16740002100	-8.26530641159828	-132.587000912987
16830001950	-8.25935087950322	-125.333694238183
16920001800	-7.56271325805278	-119.801977590517
17010001650	-7.14124317166926	-118.240166506409
17100001500	-6.88721654466202	-120.162954237369
17190001350	-7.35419904116109	-121.614368668938
17280001200	-7.96982790165246	-122.550209289829
17370001050	-8.66127172311893	-119.391838395053
17460000900	-8.83550240841339	-116.302013803804
17550000750	-8.45010876007189	-114.854743367311
17640000600	-8.26367936366839	-119.375408286614
17730000450	-8.19997223283437	-125.564229097254
17820000300	-8.72693187472996	-129.265508042503
17910000150	-9.09590539207751	-128.548284489361
18000000000	-9.06072044485909	-124.688695969027
