!Keysight Technologies N9917A: A.12.46
!Date: Thursday, 16 November 2023 19:11:14
!TimeZone: (UTC-03:00) Buenos Aires!Model: N9917A
!Serial: MY56072049
!GPS Latitude: 
!GPS Longitude: 
!GPS TimeStamp: 0001-01-01 00:00:00Z
!GPS Seconds Since Last Read: 0
!CHECKSUM:2105058597
!Correction: S11(Rdy)
!S1P File: Measurement: S11:
# Hz S RI R 50
30000	0.993658960203108	-0.105913958817912
90029850	0.952571872205463	-0.0270057812540997
180029700	0.937131430802557	-0.000668204314552188
270029550	0.919888452585925	-0.0290647164865059
360029400	0.906534723820723	-0.0733686420140495
450029250	0.899924898981169	-0.123087497842103
540029100	0.897422231414398	-0.153062961273487
630028950	0.895348483759143	-0.177593024780525
720028800	0.889119917137241	-0.194463317092416
810028650	0.874255827454985	-0.211827151471145
900028500	0.852626564457918	-0.223672782533165
990028350	0.835348596591958	-0.217489490267005
1080028200	0.825765312293298	-0.199000084484716
1170028050	0.824276508670576	-0.176745621440071
1260027900	0.830433003536732	-0.152662874881531
1350027750	0.841367969151837	-0.139187705776426
1440027600	0.861870037620323	-0.133737397676416
1530027450	0.848800143367563	-0.159374549005043
1620027300	0.736197589685159	-0.119060440117466
1710027150	0.696617782831313	0.0236909591062294
1800027000	0.752954151590508	0.0843699191440611
1890026850	0.816094736823971	0.0368145368825885
1980026700	0.844553250291284	-0.0626609422817658
2070026550	0.839923803134806	-0.159851447170328
2160026400	0.822765569759384	-0.206672099833311
2250026250	0.814115496119864	-0.187618466593382
2340026100	0.817542946977514	-0.124667048906157
2430025950	0.828431464125004	-0.0699219302041135
2520025800	0.835786223018044	-0.0542069005790459
2610025650	0.837726967595864	-0.0790551263776159
2700025500	0.830588055143123	-0.120940245202946
2790025350	0.818619061490542	-0.149281515474827
2880025200	0.810428680287293	-0.157636066430568
2970025050	0.807169000994923	-0.150889512432282
3060024900	0.809082418228462	-0.13510000641611
3150024750	0.812454319456217	-0.127224906331553
3240024600	0.810440807281929	-0.130209070980259
3330024450	0.804184174327162	-0.137666181736517
3420024300	0.798066197726379	-0.135390795319967
3510024150	0.795618050125924	-0.135670156634518
3600024000	0.799668397923058	-0.12558055314689
3690023850	0.804081928098356	-0.129649898609523
3780023700	0.801429998567612	-0.132083108681929
3870023550	0.797242777883312	-0.128430749559637
3960023400	0.79015737471296	-0.127085644702424
4050023250	0.784638001040888	-0.111464180389145
4140023100	0.785539317204924	-0.104845905915357
4230022950	0.791315286416907	-0.108465431272105
4320022800	0.788521488114985	-0.139471478159796
4410022650	0.778617796006048	-0.172434418392422
4500022500	0.767020804627796	-0.178195209936705
4590022350	0.76497375133417	-0.152196828089654
4680022200	0.766707545533589	-0.12891560687573
4770022050	0.772956674244821	-0.0997256746082388
4860021900	0.781922669922094	-0.101433606057852
4950021750	0.784453166212744	-0.115105349488269
5040021600	0.780778664909187	-0.141101870663197
5130021450	0.770151454235555	-0.152139385158403
5220021300	0.765050158683517	-0.134496976751982
5310021150	0.761939292856071	-0.124889384394015
5400021000	0.760668858426746	-0.106566424606427
5490020850	0.759891637030473	-0.105888469918098
5580020700	0.76229990413326	-0.112781050265426
5670020550	0.756455161282011	-0.14190715681631
5760020400	0.748999642804154	-0.161914722289126
5850020250	0.743712956030919	-0.166752329920127
5940020100	0.731719065281055	-0.173923758793467
6030019950	0.732347882570629	-0.145229325749396
6120019800	0.741183833891323	-0.11927116895728
6210019650	0.744127612333445	-0.1030143910281
6300019500	0.748741440557009	-0.114814034676856
6390019350	0.746427990387541	-0.134626714125563
6480019200	0.73986684229761	-0.156164290270476
6570019050	0.728579455226906	-0.156544083306756
6660018900	0.723401396113595	-0.149377071319187
6750018750	0.730774962423301	-0.11397597790209
6840018600	0.734835716883625	-0.100899031853897
6930018450	0.738969328842184	-0.112628045497031
7020018300	0.731824966301381	-0.142089227352524
7110018150	0.721719653549366	-0.157668077219806
7200018000	0.711043632404587	-0.158379241270666
7290017850	0.705844948296247	-0.132537310266524
7380017700	0.711016791948879	-0.0905179701016012
7470017550	0.719600707236571	-0.0616801146082561
7560017400	0.726340080122616	-0.0617493525823106
7650017250	0.723110051542927	-0.0872885644780302
7740017100	0.715526181243534	-0.11208328932021
7830016950	0.706482977081595	-0.127838923408127
7920016800	0.704504652391291	-0.108002980723927
8010016650	0.710915023901135	-0.0879286835223973
8100016500	0.716174687934382	-0.0727102114750844
8190016350	0.717599923592553	-0.0884011436148685
8280016200	0.710967823796639	-0.130657284972795
8370016050	0.697524465801879	-0.163033268280311
8460015900	0.68839502170618	-0.169870679375916
8550015750	0.686737187493172	-0.141568205060627
8640015600	0.691925330873661	-0.108479229747368
8730015450	0.704489116617572	-0.0655189320183383
8820015300	0.710049814472696	-0.0661378615039373
8910015150	0.707531095865333	-0.0798092406108523
9000015000	0.697169022175756	-0.0867872701736792
9090014850	0.684407159306886	-0.0631295855200365
9180014700	0.675775188802703	-0.0279225684098352
9270014550	0.677811729852299	-0.010113573404332
9360014400	0.687519575506097	-0.0274291620281547
9450014250	0.692284864391014	-0.0869079454823298
9540014100	0.685307596387519	-0.147685316741747
9630013950	0.66844259453771	-0.182241093461683
9720013800	0.6510868631188	-0.176043938322862
9810013650	0.651898477914914	-0.113000716853564
9900013500	0.667276272449841	-0.0632628547923978
9990013350	0.681625026632462	-0.0544158738959512
10080013200	0.688213926122099	-0.0830629462130816
10170013050	0.673578512454257	-0.108480129958339
10260012900	0.649605646062843	-0.0907309461008283
10350012750	0.63322313182316	-0.0210607253175336
10440012600	0.631355164876826	0.0623171009329515
10530012450	0.647613871151864	0.0743151993879186
10620012300	0.660602108142605	0.0256278570648806
10710012150	0.651596097860488	-0.0715256022601375
10800012000	0.622242060831333	-0.147929312810738
10890011850	0.595397279577748	-0.186210940931291
10980011700	0.591370444692402	-0.17428657907451
11070011550	0.61610681476997	-0.123223022252488
11160011400	0.642746911610757	-0.0690883559020567
11250011250	0.662227202060331	-0.0629170702929407
11340011100	0.660921494009769	-0.0971354117982026
11430010950	0.644373136662968	-0.117453378214174
11520010800	0.62327350669094	-0.0941844487301013
11610010650	0.603866106142616	-0.0226499261792857
11700010500	0.603724750521599	0.0912119985247323
11790010350	0.622001779614642	0.153993512105278
11880010200	0.636919222812616	0.141535498138427
11970010050	0.642725527415812	0.0669904427454436
12060009900	0.62833750669544	-0.00941374624634337
12150009750	0.611705704101528	-0.0659420152970143
12240009600	0.59689596873521	-0.0737658108164171
12330009450	0.603682076249913	-0.055970758751701
12420009300	0.626545385498266	-0.0382988422817279
12510009150	0.646100820832683	-0.0537625501262962
12600009000	0.650407835913895	-0.0818754510652904
12690008850	0.639641792958199	-0.0951793732648554
12780008700	0.627133622763193	-0.0759599332220369
12870008550	0.624200661663419	-0.00414391021057359
12960008400	0.630138998232277	0.060676084391804
13050008250	0.640646754781415	0.106784467518617
13140008100	0.653528890407616	0.094030221423625
13230007950	0.648633082637069	0.0736842539411428
13320007800	0.631514374731824	0.0435588743459138
13410007650	0.614258651324486	0.0553900873660291
13500007500	0.620623135555765	0.0776423320308886
13590007350	0.64656563340956	0.0687662074290636
13680007200	0.665639262554797	-0.00156766629817839
13770007050	0.654414542473232	-0.069738584974146
13860006900	0.627011146787525	-0.115553845831627
13950006750	0.609087373175853	-0.09029810812407
14040006600	0.615625660823171	-0.0201301830698609
14130006450	0.63557732794717	0.0341144617916561
14220006300	0.665046487240384	0.0695953297914103
14310006150	0.681815238681655	0.0351024989431271
14400006000	0.673390345331426	-0.0232435970981717
14490005850	0.644804833676171	-0.0555454736416194
14580005700	0.612670996637234	-0.0107168265582901
14670005550	0.600395948551132	0.0885397407586673
14760005400	0.617252242725645	0.177057654400491
14850005250	0.65490461146967	0.18970436712945
14940005100	0.692693129628966	0.111351971158745
15030004950	0.697217497467153	0.0131602090054621
15120004800	0.665772708395161	-0.0576295023047051
15210004650	0.631476878331488	-0.0745488424760378
15300004500	0.620997301002104	-0.0203854547210698
15390004350	0.642159156053788	0.0403272790728297
15480004200	0.680824670109787	0.0829089371409646
15570004050	0.716747508273911	0.00956086890098657
15660003900	0.712681347457073	-0.0761282021120572
15750003750	0.680459953229077	-0.160693045679693
15840003600	0.637706183477072	-0.157972620653596
15930003450	0.619829662263801	-0.096435573609976
16020003300	0.632252646604737	-0.00780634136796116
16110003150	0.669847715022761	0.0770371205768442
16200003000	0.694749566063322	0.055721508635444
16290002850	0.706490536378323	-0.0117364939441444
16380002700	0.668101385155018	-0.0715539975735691
16470002550	0.624957055921017	-0.0739555822511219
16560002400	0.608560168103258	-0.0435904337531436
16650002250	0.621345493036514	0.00736454898886935
16740002100	0.654136567687854	0.0143984621863567
16830001950	0.674725080805627	-0.0216262658230894
16920001800	0.676997244877426	-0.0875182569168048
17010001650	0.650029575749454	-0.117627026407435
17100001500	0.620324350071111	-0.124207983137183
17190001350	0.608462433940083	-0.0767115778377392
17280001200	0.617837575413867	-0.0208945707354112
17370001050	0.640553418308851	0.0149249803792931
17460000900	0.650394351530158	0.0221991945599623
17550000750	0.644965917515578	0.00418271796942621
17640000600	0.625618795617809	0.0198881328937372
17730000450	0.602517125919879	0.0455137927064298
17820000300	0.602102339586598	0.0886305435473789
17910000150	0.618195276617323	0.0916128465291079
18000000000	0.636486738840032	0.0639442054738073
