!Keysight Technologies N9917A: A.12.46
!Date: Wednesday, 08 November 2023 22:12:23
!TimeZone: (UTC-03:00) Buenos Aires!Model: N9917A
!Serial: MY56072049
!GPS Latitude: 
!GPS Longitude: 
!GPS TimeStamp: 0001-01-01 00:00:00Z
!GPS Seconds Since Last Read: 0
!CHECKSUM:1499144359
!Correction: S11(ON U)
!S1P File: Measurement: S11:
# Hz S RI R 50
30000	1.00379360996184	-2.53493550066059E-05
1829997	1.00592053100793	0.00111353937895321
3629994	1.0039534219605	9.79015059223032E-05
5429991	1.00345458162808	0.00044755561755502
7229988	1.00144273685924	-0.000115290952893501
9029985	1.00028676513116	0.000177369262379559
10829982	0.999297055863766	0.000681397912048937
12629979	0.997237890192086	0.000271501621339328
14429976	0.997497791565228	0.00116128793163085
16229973	0.994519385250668	0.00142360347997921
18029970	0.991437895033773	0.00151766450229707
19829967	0.989393490107822	-0.00042639724104275
21629964	0.989947724995564	0.00028637628865992
23429961	0.9867721057286	-0.000985744367025351
25229958	0.984498411332219	-0.00310697765106599
27029955	0.981956904972929	-0.0024007117292973
28829952	0.982706624270907	-0.00573539224203003
30629949	0.978031943023018	-0.00536896640521549
32429946	0.977175854547974	-0.0056755070798335
34229943	0.976060561665063	-0.00761820884358763
36029940	0.974496367579439	-0.00623153811002633
37829937	0.972962891040793	-0.0103519028381412
39629934	0.972106940374899	-0.0111545995032939
41429931	0.97243656158332	-0.00993861479680727
43229928	0.971645008614256	-0.0139885750584497
45029925	0.971201182219929	-0.0157241685899605
46829922	0.972547106811983	-0.0149368939692646
48629919	0.970540063926285	-0.0189163620426682
50429916	0.972293766217624	-0.0176801998457569
52229913	0.974562959168098	-0.0200978647547939
54029910	0.974990479773703	-0.0238509537332126
55829907	0.975936841747703	-0.0249102105917305
57629904	0.976419084078827	-0.0244056536018009
59429901	0.976780523256277	-0.0250591639375973
61229898	0.98042808432626	-0.0258713453888102
63029895	0.982843244532311	-0.0262682224503583
64829892	0.984202417578931	-0.0270795786878624
66629889	0.985535155093734	-0.0279412348426621
68429886	0.987426817576587	-0.0281712471195874
70229883	0.989763621474997	-0.0289263297544615
72029880	0.990920316055943	-0.0299812368069524
73829877	0.994296832163045	-0.0291301834705306
75629874	0.994057606082546	-0.0292410357187386
77429871	0.997081709113764	-0.0302455287902153
79229868	0.999433262690919	-0.0306789919376871
81029865	1.00176643918389	-0.0289100985351481
82829862	1.00005878362601	-0.0290916054201403
84629859	1.00178815219104	-0.0283738549183166
86429856	1.00150461903963	-0.028639613408501
88229853	1.00307816161215	-0.0288070039897022
90029850	1.00310897222224	-0.026786929879121
91829847	1.00168548507386	-0.0265313327842736
93629844	1.00277407727517	-0.0260655577440301
95429841	1.00160446675443	-0.0236879549485094
97229838	0.999788586005738	-0.0244858167623844
99029835	0.998856479375806	-0.0258036138515885
100829832	0.9983598455716	-0.0261170063071087
102629829	0.995895295236462	-0.025352558773473
104429826	0.995307727284878	-0.0252340895250303
106229823	0.992524278609917	-0.0264320269222976
108029820	0.990192544970679	-0.0271806810310461
109829817	0.990386828519949	-0.0269697280624099
111629814	0.986873824716559	-0.0276674529371356
113429811	0.986069062002344	-0.0289896546461326
115229808	0.983968019196845	-0.0279405339295596
117029805	0.981659064093714	-0.0306252439475766
118829802	0.980081870582632	-0.0312199478176552
120629799	0.979358754141913	-0.0322381944683039
122429796	0.975666018116315	-0.0351553921478427
124229793	0.974000283007722	-0.0336496608643113
126029790	0.972814736076233	-0.0353383700080121
127829787	0.973689443620595	-0.0396974806137905
129629784	0.970604713740915	-0.0397930907870024
131429781	0.971626761298642	-0.0397930292159149
133229778	0.973562747028258	-0.0416149909666317
135029775	0.971110913514496	-0.0431218843450396
136829772	0.970720699607555	-0.046634802404696
138629769	0.969135585829701	-0.0477246235978324
140429766	0.972532611999454	-0.0477768190935146
142229763	0.971959937994737	-0.0499415541922584
144029760	0.971338337783863	-0.0516873159150275
145829757	0.974880729459563	-0.0515444663886528
147629754	0.974584005221561	-0.0528168473381779
149429751	0.979271971903064	-0.0562030310216773
151229748	0.981182128297492	-0.0555133385756689
153029745	0.981070724800747	-0.0572351572400742
154829742	0.981999123670803	-0.058615203850153
156629739	0.984562135414929	-0.0581763791676515
158429736	0.985558290918506	-0.0600547214138998
160229733	0.987402282386715	-0.0603532357325892
162029730	0.993032901233021	-0.0598273441290738
163829727	0.99346851058952	-0.0601461507143877
165629724	0.992973677616697	-0.0591140685345575
167429721	0.995116921872202	-0.0612535373678296
169229718	0.997325744148725	-0.0604283176761226
171029715	0.997343819510772	-0.0591386013742319
172829712	0.999039556534514	-0.0605399747466678
174629709	1.00021339381264	-0.06027147084622
176429706	0.999517573572937	-0.0581181697143205
178229703	1.00018500614553	-0.0578418317630516
180029700	0.999489468398448	-0.0581412210765641
181829697	1.00100848329299	-0.0559687246078829
183629694	0.999157620931074	-0.0556597871779933
185429691	0.998423117687075	-0.0562463684183376
187229688	0.999352602709169	-0.0574262838825473
189029685	0.998185451070772	-0.0565122960681034
190829682	0.994723604762614	-0.054288845852905
192629679	0.992603482219953	-0.0544038942698674
194429676	0.991214118880031	-0.055566103771806
196229673	0.990986880355472	-0.0548286149082964
198029670	0.988073337995719	-0.0555788829977852
199829667	0.987784168790997	-0.0553002248018182
201629664	0.985824571534008	-0.0552622787281439
203429661	0.982908808513151	-0.0552080926866221
205229658	0.980228407815141	-0.0574312120752535
207029655	0.977370321051972	-0.0585829845329877
208829652	0.976323411021737	-0.0595530229765517
210629649	0.976503308001067	-0.061723242095562
212429646	0.973056206852811	-0.0637213149076938
214229643	0.971618164918241	-0.065308851843799
216029640	0.974013815118245	-0.064405057447728
217829637	0.97194017771637	-0.0649948522626423
219629634	0.968906860735465	-0.0689138722169669
221429631	0.969420652413513	-0.0695914147888806
223229628	0.970041466746836	-0.0698226976739357
225029625	0.970102167864261	-0.071946392184818
226829622	0.968731886967684	-0.0738640156685998
228629619	0.969046310408309	-0.0775280045797456
230429616	0.968901541668786	-0.0782367945939377
232229613	0.969629909974248	-0.0816955996349243
234029610	0.970848879255259	-0.0806502980754823
235829607	0.972589735833721	-0.0815997988248096
237629604	0.973035521325836	-0.0844803984634079
239429601	0.9740694017087	-0.0856868835190311
241229598	0.974096368120099	-0.0894011671590169
243029595	0.978722603456565	-0.0857396435335482
244829592	0.981313612685353	-0.0887762713212182
246629589	0.981743011829552	-0.0905212954572048
248429586	0.983585106413324	-0.0908577573756179
250229583	0.984646021822035	-0.0920704922256985
252029580	0.986256338887357	-0.0919374242300134
253829577	0.9876892416143	-0.0931362045263511
255629574	0.990042525202658	-0.0935270444662018
257429571	0.991705629231336	-0.0913557916159017
259229568	0.99526744025208	-0.0922237897305974
261029565	0.992607770393125	-0.0917115946062035
262829562	0.994478837679467	-0.0933391869686077
264629559	0.996209585579934	-0.0923893370396608
266429556	0.996083284000351	-0.0920870169206059
268229553	0.994327183411217	-0.093335028225365
270029550	0.994757445216122	-0.0931178833776862
271829547	0.994368682267489	-0.0911187626755579
273629544	0.994110702978968	-0.0896775646354405
275429541	0.993013695670729	-0.0893117703940949
277229538	0.990306933500849	-0.0906263443542973
279029535	0.990077725018319	-0.0872211961410426
280829532	0.987818069879077	-0.0893395907683676
282629529	0.986251921403984	-0.0876450692310795
284429526	0.987094006751266	-0.090114043632644
286229523	0.983284922066968	-0.0877223959048365
288029520	0.983481486704796	-0.0907052644259492
289829517	0.979426334381429	-0.0881470214079675
291629514	0.977911012736884	-0.0883695003302585
293429511	0.977275863165382	-0.0887532512809608
295229508	0.973850483496982	-0.0899468720213105
297029505	0.974387466321998	-0.0889603810247714
298829502	0.969588101363822	-0.0906405301498607
300629499	0.969279212286026	-0.0905990014128819
302429496	0.96785557011838	-0.0917422532145146
304229493	0.965904924082128	-0.094383021087822
306029490	0.96584671121151	-0.0961859792560572
307829487	0.964375138636524	-0.0991262309753825
309629484	0.961114144315182	-0.099828273451504
311429481	0.964811302995191	-0.103178764710815
313229478	0.960708548008565	-0.101904658112311
315029475	0.961420894257432	-0.105509920237524
316829472	0.960852423351351	-0.106547572353767
318629469	0.962692880050074	-0.107784852898745
320429466	0.963772643599218	-0.108664923587898
322229463	0.96471193352398	-0.11250932032985
324029460	0.964686843492719	-0.112865896806835
325829457	0.966484645147147	-0.114767789241878
327629454	0.96742587808625	-0.114891615263739
329429451	0.969059309507351	-0.115940673369149
331229448	0.970638471251178	-0.117887656875635
333029445	0.971995657045152	-0.117924982746956
334829442	0.973470959769862	-0.122182382007269
336629439	0.978702412243989	-0.12012737055752
338429436	0.978001765584225	-0.12381340316253
340229433	0.979035774353842	-0.12334469285804
342029430	0.97954142250911	-0.123695527124807
343829427	0.982369074952547	-0.126792850718926
345629424	0.985859359523393	-0.127546821569458
347429421	0.986693615411715	-0.125936615921645
349229418	0.984179086604595	-0.125467986001728
351029415	0.986699234516659	-0.126887823232333
352829412	0.988205791209206	-0.127184111535288
354629409	0.98562024357957	-0.12641146274808
356429406	0.986327864876958	-0.124226883776636
358229403	0.983930391875647	-0.127574210979657
360029400	0.986091136090151	-0.12543173472122
361829397	0.987562593107782	-0.124689234192058
363629394	0.98459167235535	-0.124702549938538
365429391	0.983383373361566	-0.124520701351266
367229388	0.981583660330662	-0.124828396240065
369029385	0.981389148771855	-0.123163651371795
370829382	0.979579115591278	-0.122937582183293
372629379	0.976663695002746	-0.121883266278718
374429376	0.97742213054737	-0.12351091746786
376229373	0.972986205236649	-0.124731409216206
378029370	0.973122089356972	-0.126508967584801
379829367	0.969209036797715	-0.123895847049593
381629364	0.96527519818664	-0.125526344840543
383429361	0.965653165190087	-0.122548057061757
385229358	0.963861346195727	-0.127528191463524
387029355	0.959704329648899	-0.126891358456812
388829352	0.960819442013749	-0.126212479166839
390629349	0.961168995670924	-0.130981987929722
392429346	0.959612542628689	-0.131266910419476
394229343	0.955570924292153	-0.129943087943839
396029340	0.95433713746258	-0.127588014236304
397829337	0.95452500105861	-0.127965877425352
399629334	0.954009657470297	-0.137717568853132
401429331	0.955960394883667	-0.131953108565335
403229328	0.95226113524994	-0.139121685426393
405029325	0.954338583605563	-0.139313104932171
406829322	0.95274283888402	-0.143508793597915
408629319	0.954533415722504	-0.142040589744646
410429316	0.95573208914775	-0.143060208299962
412229313	0.956317853127115	-0.147395913001012
414029310	0.956070856050968	-0.146442607439415
415829307	0.958777852820856	-0.147746415321271
417629304	0.95888999245938	-0.149293954353435
419429301	0.959833109349891	-0.152119600630464
421229298	0.963886908508938	-0.151978066292573
423029295	0.966332919430211	-0.153628577277153
424829292	0.967142279750812	-0.156474060045521
426629289	0.966283733301102	-0.154463272737203
428429286	0.97056752951766	-0.156575261528554
430229283	0.969804407988289	-0.156052941101132
432029280	0.972618715110309	-0.155372999280086
433829277	0.97359622077597	-0.157560440817622
435629274	0.975945719614038	-0.156693029495047
437429271	0.975103352585701	-0.159787216590795
439229268	0.976035601538732	-0.15843216050912
441029265	0.976787871924511	-0.158808338920429
442829262	0.979183502210358	-0.158930561876681
444629259	0.978911159488053	-0.161671909806416
446429256	0.97784276374737	-0.158313154070647
448229253	0.976318258824884	-0.158780745021894
450029250	0.975620841831715	-0.159138475400924
451829247	0.976045719512049	-0.158712229343974
453629244	0.972936132293061	-0.15874282492855
455429241	0.974477217815847	-0.156177389049635
457229238	0.971030093305506	-0.160998791688658
459029235	0.970453421472702	-0.159138164369272
460829232	0.967017306733172	-0.158010700730756
462629229	0.967202687611755	-0.158494619791662
464429226	0.965690263512945	-0.157954754895254
466229223	0.961786299476657	-0.159013958019307
468029220	0.962196597399919	-0.159303349564199
469829217	0.959657199689574	-0.16263215650499
471629214	0.955488851993089	-0.16130514036243
473429211	0.951128297618482	-0.163247422348926
475229208	0.950935065428601	-0.162761658360866
477029205	0.951014957072648	-0.163305051785918
478829202	0.948693674356199	-0.16217073448095
480629199	0.946708641690409	-0.16793756571439
482429196	0.946259101450843	-0.165625528355567
484229193	0.944184690821383	-0.168554975602015
486029190	0.94168940190542	-0.165103252281534
487829187	0.944270618985691	-0.170450939108717
489629184	0.941928601649206	-0.169654903610842
491429181	0.941170777110836	-0.17349604206918
493229178	0.94134175611657	-0.175145592649551
495029175	0.944087153914795	-0.17644779364432
496829172	0.941915570336174	-0.176523055187851
498629169	0.943922739033566	-0.181662280993594
500429166	0.94515648011223	-0.17932047928303
502229163	0.945904707975543	-0.180351249416026
504029160	0.946501610496856	-0.182248919566027
505829157	0.948603524383043	-0.184221641316313
507629154	0.951164063228437	-0.182267629208142
509429151	0.95086932012473	-0.185157016131441
511229148	0.953189530317618	-0.18789205784679
513029145	0.952456097094106	-0.187309153027741
514829142	0.954777339374366	-0.18954609558765
516629139	0.959046653323121	-0.190124773900983
518429136	0.959356816899985	-0.190417562158564
520229133	0.960582910353232	-0.190082266287101
522029130	0.962737880458819	-0.192181044617261
523829127	0.965504723755792	-0.189539230834994
525629124	0.968278617335316	-0.189782880290214
527429121	0.966664429312793	-0.19143245436615
529229118	0.965557930277823	-0.191374962160797
531029115	0.965410991319059	-0.192903796965938
532829112	0.970484303600104	-0.193080410282229
534629109	0.967205844271777	-0.188232993109096
536429106	0.968012514527806	-0.188785623393323
538229103	0.968468004744194	-0.19099199859348
540029100	0.967652119582305	-0.192598026221846
541829097	0.966170334528614	-0.191846814900081
543629094	0.962168439248368	-0.187196387825497
545429091	0.962502702975099	-0.192305531178023
547229088	0.961447823106343	-0.191244024089358
549029085	0.959205552541285	-0.190720800434422
550829082	0.959481524591493	-0.191048554873153
552629079	0.95320731679049	-0.192229733822125
554429076	0.950490666210294	-0.188944429416868
556229073	0.953302082891446	-0.191473925762042
558029070	0.947311773718742	-0.194101319307222
559829067	0.944392545039791	-0.193930739294486
561629064	0.942785159618268	-0.193513558777979
563429061	0.941396145356001	-0.193477869736919
565229058	0.938392457767646	-0.1954825616492
567029055	0.938887391481643	-0.196073133374027
568829052	0.93587311637056	-0.196008112054893
570629049	0.934381678069026	-0.199731279887961
572429046	0.932760333759133	-0.199220779337677
574229043	0.930807329912342	-0.199763390433447
576029040	0.928655986415522	-0.202490909937264
577829037	0.930481843948802	-0.205879661936341
579629034	0.930285545291314	-0.208121162241658
581429031	0.928016235765174	-0.208081027690327
583229028	0.928995685191687	-0.209338709486137
585029025	0.928073366288991	-0.212801835343773
586829022	0.9316266779422	-0.213797687785678
588629019	0.930609518923714	-0.216448278994495
590429016	0.931105565154004	-0.216254914059008
592229013	0.931820055728631	-0.217552760647758
594029010	0.932360240958727	-0.220284215676941
595829007	0.935113469131478	-0.220640229011563
597629004	0.936346585078479	-0.219987791779329
599429001	0.936785348929458	-0.220598972363614
601228998	0.942205252587531	-0.221607811880983
603028995	0.940880955380316	-0.224242361981542
604828992	0.943120796769769	-0.225661635966881
606628989	0.946558851232721	-0.226863590806399
608428986	0.948500543626109	-0.225598494451831
610228983	0.950187623735394	-0.225038847623099
612028980	0.950325696466142	-0.228348615930571
613828977	0.955470313047163	-0.225650946184028
615628974	0.953861511643787	-0.226351251602576
617428971	0.956083682124689	-0.225635646390644
619228968	0.954702573833893	-0.223261723129426
621028965	0.958550244240571	-0.225699087382267
622828962	0.959638829952806	-0.225061571861458
624628959	0.958899835621592	-0.223560589007146
626428956	0.957238616019009	-0.224323070189904
628228953	0.957365421733839	-0.226889516705405
630028950	0.955062652390194	-0.221565654158719
631828947	0.956336041361821	-0.223492107420943
633628944	0.952552098433364	-0.221704866741802
635428941	0.953533090180744	-0.2229874190421
637228938	0.951875936109384	-0.220541200390351
639028935	0.948674282249769	-0.219268840655191
640828932	0.94702100459441	-0.223986367381275
642628929	0.942210511043506	-0.220847903463478
644428926	0.940741465351704	-0.219604661921055
646228923	0.94079774015203	-0.224281826606229
648028920	0.938011398653159	-0.2200740160232
649828917	0.935475434257045	-0.219288339169506
651628914	0.933753487001757	-0.223234294308547
653428911	0.931573799829507	-0.225340803988095
655228908	0.926882061146692	-0.222374369304115
657028905	0.925832858470614	-0.2249466095874
658828902	0.926367714289081	-0.224534914595013
660628899	0.921381711940334	-0.227221150196584
662428896	0.922449496115622	-0.230979334980586
664228893	0.921255341660595	-0.232682476527621
666028890	0.918252525464608	-0.233840992893564
667828887	0.919641859145428	-0.234994777714492
669628884	0.919525155787479	-0.236633532101739
671428881	0.915599171263611	-0.238577942139956
673228878	0.914591550279863	-0.240213586533837
675028875	0.917259568488546	-0.246496582797728
676828872	0.91825375806943	-0.24551075969247
678628869	0.920091072955462	-0.246731103479588
680428866	0.921580092530651	-0.248194570044463
682228863	0.921259893668051	-0.251447833674957
684028860	0.923724398715413	-0.250645517566602
685828857	0.925092649746714	-0.255929997732655
687628854	0.925999137454892	-0.253359507035594
689428851	0.927049699836918	-0.254524827171999
691228848	0.931341602361778	-0.255514108821027
693028845	0.931037669805794	-0.260852788044797
694828842	0.931080047941183	-0.259848811576424
696628839	0.937831867820286	-0.25839039818629
698428836	0.936625738285202	-0.258746388585628
700228833	0.939657908170398	-0.261199766565832
702028830	0.944065728250702	-0.259942878763875
703828827	0.943123106981185	-0.260515241566598
705628824	0.94382794641571	-0.259655807995398
707428821	0.943299807030925	-0.259023828586208
709228818	0.945689602597587	-0.258683378995831
711028815	0.943432398413827	-0.257632072982716
712828812	0.94838367847216	-0.256343759504806
714628809	0.946466142038075	-0.257595529761351
716428806	0.947185507293358	-0.255393982414554
718228803	0.948596328449519	-0.256360760223407
720028800	0.946132904594242	-0.252992031781216
721828797	0.945236040510099	-0.25292425307085
723628794	0.945917682680319	-0.25235944938287
725428791	0.942599307309141	-0.248362897795474
727228788	0.941577635231406	-0.250378141554188
729028785	0.936801627026401	-0.250014794338927
730828782	0.936732371302884	-0.250403306914203
732628779	0.934660560520331	-0.24937007745933
734428776	0.93396879958688	-0.250083158218771
736228773	0.928100664666119	-0.250393671435424
738028770	0.924635761779964	-0.249566298587289
739828767	0.925013153571897	-0.253342086603227
741628764	0.924074288077936	-0.251560488625683
743428761	0.922603757875544	-0.248962892382794
745228758	0.918370743168692	-0.251406463696058
747028755	0.916781270714953	-0.254716996975154
748828752	0.913729676243121	-0.253747559269073
