!Keysight Technologies N9917A: A.12.46
!Date: Wednesday, 08 November 2023 22:07:54
!TimeZone: (UTC-03:00) Buenos Aires!Model: N9917A
!Serial: MY56072049
!GPS Latitude: 
!GPS Longitude: 
!GPS TimeStamp: 0001-01-01 00:00:00Z
!GPS Seconds Since Last Read: 0
!CHECKSUM:1743996153
!Correction: S11(ON U)
!S1P File: Measurement: S11:
# Hz S RI R 50
30000	1.00434327835124	-0.000614458395695955
1829997	1.00586505539866	-0.000718394042797172
3629994	1.00324122002706	-0.00243194035562967
5429991	1.00318040426925	-0.00408681748899943
7229988	0.999640974680575	-0.00493957539199418
9029985	0.997924060073861	-0.0055496511560934
10829982	0.995333131958467	-0.00753591486033398
12629979	0.991314962727197	-0.00907725322111864
14429976	0.98963615340095	-0.00898461618568916
16229973	0.986369218996191	-0.00964063138738223
18029970	0.98100337452467	-0.0111443090781873
19829967	0.975607959011467	-0.0131067376163415
21629964	0.972715661731126	-0.0149506187053851
23429961	0.969244951048946	-0.0169248620434216
25229958	0.964514852717479	-0.0180256332420039
27029955	0.961161914878667	-0.01929402912999
28829952	0.957370042281608	-0.0237425713221147
30629949	0.953407335799811	-0.0254144850733105
32429946	0.947621097109167	-0.0272250614539003
34229943	0.945753039322082	-0.0294728887630314
36029940	0.943606848111523	-0.031032695801118
37829937	0.940677482732014	-0.0352073379684336
39629934	0.94125796355524	-0.036826769008943
41429931	0.938599306545525	-0.039234614407243
43229928	0.93687828863914	-0.0417784246213094
45029925	0.937781621105482	-0.0456177143032802
46829922	0.937083190560816	-0.0470323978344347
48629919	0.931437895450886	-0.0501840630362843
50429916	0.931974566191293	-0.0508912505537559
52229913	0.930203330209151	-0.0541334519808822
54029910	0.930139754812384	-0.0581427960372516
55829907	0.934305176148687	-0.0587718237026069
57629904	0.934935031763349	-0.0611077398349905
59429901	0.936612342746208	-0.0655039508975769
61229898	0.938827772299096	-0.0668743580682542
63029895	0.944800719744346	-0.0693193592637564
64829892	0.94715921514256	-0.0718144700631761
66629889	0.9517608736141	-0.0724811660711061
68429886	0.956183899963367	-0.076022634766028
70229883	0.959898724799615	-0.0763334777492692
72029880	0.963047360451783	-0.0798581165319783
73829877	0.967488569708567	-0.0800828505558555
75629874	0.969182600938173	-0.0816623241514403
77429871	0.974971279131488	-0.0831048689109427
79229868	0.979874190407674	-0.0848563794252166
81029865	0.985197782947014	-0.0862924194095228
82829862	0.985929683680082	-0.0865662618569372
84629859	0.988373130084196	-0.0883254752357724
86429856	0.991595028183216	-0.0894177173424547
88229853	0.993023260781016	-0.091190563716622
90029850	0.993311933739106	-0.0907203888284679
91829847	0.99283373343878	-0.092461781366829
93629844	0.995291578759458	-0.0923310405251243
95429841	0.995435077515647	-0.0933927091749752
97229838	0.994668715733284	-0.0940267252532246
99029835	0.991863159982828	-0.0969385892902112
100829832	0.992478611138248	-0.0983344139857354
102629829	0.989488814537012	-0.0987088454874036
104429826	0.988833073665717	-0.101363157196155
106229823	0.986270101331979	-0.101143347214485
108029820	0.984454809124	-0.103787275450088
109829817	0.982838344490528	-0.105799784422279
111629814	0.979060358287275	-0.105428243600599
113429811	0.975556410503365	-0.107096836242102
115229808	0.972582233846446	-0.108902642996868
117029805	0.969185915395583	-0.112019498971184
118829802	0.965452997071464	-0.111889727247403
120629799	0.961565415677643	-0.114932680046967
122429796	0.958366405305851	-0.117941127734393
124229793	0.954352409346611	-0.118049832758348
126029790	0.95048044596003	-0.120652017018395
127829787	0.949272978783588	-0.124960117015902
129629784	0.944262821247604	-0.126955472068106
131429781	0.943350361555159	-0.12760972340127
133229778	0.942519029550624	-0.131962630101416
135029775	0.93836664379128	-0.133964631186357
136829772	0.935808015672292	-0.136984598293745
138629769	0.933944854156408	-0.139358360894752
140429766	0.935231884763216	-0.140639065840919
142229763	0.932911264743303	-0.143757074048333
144029760	0.931280641385138	-0.146517221056089
145829757	0.933408176933845	-0.149482464080531
147629754	0.93516620432602	-0.150218788662923
149429751	0.93657341806998	-0.155624705645626
151229748	0.93665796598051	-0.154274567610348
153029745	0.932050567694715	-0.158670224234389
154829742	0.934292477107813	-0.160344289481956
156629739	0.931192327758077	-0.159973534479119
158429736	0.934025701040098	-0.162614252608469
160229733	0.93497353104496	-0.164770253763094
162029730	0.939844126065009	-0.166076571106231
163829727	0.942463502059931	-0.167800670298019
165629724	0.941547355880308	-0.16997751472443
167429721	0.946098959852973	-0.172282271144292
169229718	0.949474077657282	-0.172751871162056
171029715	0.954699155733815	-0.173413204774856
172829712	0.958033529118735	-0.177454696019397
174629709	0.960999883133439	-0.179659065492057
176429706	0.962761226515812	-0.178190125904023
178229703	0.965988822107548	-0.17987678048053
180029700	0.965518962122614	-0.18192593087484
181829697	0.967850628718828	-0.182788028777791
183629694	0.966987171133851	-0.182704940880149
185429691	0.965587152100002	-0.185541645484355
187229688	0.969399613997723	-0.187333572096643
189029685	0.969476503310349	-0.189586224966786
190829682	0.968213459929017	-0.187404135163736
192629679	0.967318953047317	-0.188775858873535
194429676	0.967513930108801	-0.19224780991784
196229673	0.968244927277767	-0.191888298829771
198029670	0.964141244445049	-0.195140012102165
199829667	0.965327657409024	-0.194896191958223
201629664	0.962315149007666	-0.198654598097449
203429661	0.960448464400296	-0.198595180946871
205229658	0.958604296081916	-0.201156371074262
207029655	0.955751473625705	-0.203231199705512
208829652	0.954661191062689	-0.202252694204749
210629649	0.954652938375159	-0.207246965619202
212429646	0.949965251517701	-0.209556305187624
214229643	0.948584821776304	-0.211988357355351
216029640	0.948481322488587	-0.212977904390677
217829637	0.943119804235274	-0.213285016622117
219629634	0.939964221915385	-0.218158029928
221429631	0.938568627131708	-0.220630107270234
223229628	0.937060647335233	-0.222850003829299
225029625	0.936274525755906	-0.225360226357637
226829622	0.931296529833151	-0.227657076966787
228629619	0.929838828672988	-0.230437602135645
230429616	0.925665169644961	-0.231877711767718
232229613	0.922399519325798	-0.235743604950194
234029610	0.919555710442762	-0.234965318542112
235829607	0.9203764325034	-0.23724840330001
237629604	0.916818159241686	-0.238882318121457
239429601	0.915642963022913	-0.239391184256985
241229598	0.912505996778839	-0.243191617933912
243029595	0.915551328931041	-0.242867242558493
244829592	0.916206874389486	-0.246339883077085
246629589	0.916033537632998	-0.247333818733969
248429586	0.91527489649483	-0.250407743458207
250229583	0.913979754010994	-0.253630458329103
252029580	0.91585072858358	-0.252274174481146
253829577	0.916637797290547	-0.255088015761764
255629574	0.918453043315833	-0.258437735698148
257429571	0.920875126031891	-0.257193352922692
259229568	0.926489227943676	-0.262256960585737
261029565	0.926617417818194	-0.262514965342512
262829562	0.928212560999423	-0.266908153613036
264629559	0.929258039819963	-0.268214201058034
266429556	0.930175009942136	-0.267318098540239
268229553	0.925674872260242	-0.270087881029684
270029550	0.92277288325284	-0.269912170931168
271829547	0.921228342890585	-0.267625830912236
273629544	0.918868523165783	-0.267222941014861
275429541	0.91734833866751	-0.266406554780412
277229538	0.917628719962865	-0.269681394221797
279029535	0.919274384280065	-0.270070647115023
280829532	0.91840951105506	-0.27335956381278
282629529	0.919769309287317	-0.274141928762142
284429526	0.923674553599104	-0.278724418186004
286229523	0.921617152146465	-0.278819379174359
288029520	0.923832876882137	-0.282463663254013
289829517	0.922854209833576	-0.281951639157803
291629514	0.922439897078944	-0.285023829741716
293429511	0.92344590184221	-0.287580552676584
295229508	0.921742080477392	-0.288045305323116
297029505	0.922219118878558	-0.290024246571525
298829502	0.921351096537054	-0.293425729227095
300629499	0.922293041489677	-0.297927987477801
302429496	0.919144826491643	-0.29870598545184
304229493	0.919598533537711	-0.302421170034525
306029490	0.918429645346394	-0.306552012198025
307829487	0.917250081664018	-0.309555835380871
309629484	0.914953538229714	-0.308815927602533
311429481	0.913695743027265	-0.314971490396877
313229478	0.91341808133414	-0.313900678813745
315029475	0.915230490382013	-0.318317300469871
316829472	0.912007638544103	-0.320793819609198
318629469	0.912366352040833	-0.32496429267603
320429466	0.911688927928511	-0.324708682355455
322229463	0.909977568272359	-0.328732705912705
324029460	0.908162806206778	-0.327651168884618
325829457	0.908062556598528	-0.331179701238921
327629454	0.9062304373365	-0.332350247658662
329429451	0.905369481276974	-0.334185524797503
331229448	0.904654912013368	-0.336242255414686
333029445	0.904656298475378	-0.335891379970035
334829442	0.901740364801788	-0.33944380847245
336629439	0.899183529742432	-0.336476947392926
338429436	0.895275487822005	-0.337770639685508
340229433	0.891701818831758	-0.337734594485663
342029430	0.889058076905293	-0.337020527217584
343829427	0.888148522924194	-0.338622765804445
345629424	0.889308898913199	-0.340869439549795
347429421	0.889118762136974	-0.339929345884021
349229418	0.88470437223681	-0.33896139115133
351029415	0.884287903718503	-0.341729975996584
352829412	0.884058623667546	-0.343020000245601
354629409	0.878899159531175	-0.342930598579427
356429406	0.878609199067154	-0.342133781161536
358229403	0.876090996857453	-0.344738550086769
360029400	0.879825910617038	-0.346326727439046
361829397	0.880364076109844	-0.349261544737525
363629394	0.878572274793693	-0.350783733496794
365429391	0.879138303751187	-0.353373489010706
367229388	0.877920120690669	-0.354746824240601
369029385	0.876692807208828	-0.355466442956036
370829382	0.874737948919961	-0.354749398440594
372629379	0.87362543517581	-0.355030366775097
374429376	0.873881032312549	-0.35896252352945
376229373	0.868589311158998	-0.358758186627141
378029370	0.869476451609676	-0.363136967829462
379829367	0.870700810428292	-0.363672703819659
381629364	0.867717604131134	-0.366499630188722
383429361	0.871437063545223	-0.36873859547699
385229358	0.868850007875301	-0.373553875826157
387029355	0.867378664383981	-0.375296524001702
388829352	0.869398925155851	-0.375973489086216
390629349	0.870681917080941	-0.381680991831135
392429346	0.86922366139668	-0.385600249340035
394229343	0.868663781610611	-0.386684959488778
396029340	0.868679530376415	-0.387870541407535
397829337	0.869645205785097	-0.389882819296235
399629334	0.868868233333912	-0.397582150824833
401429331	0.873776742193537	-0.397120230876237
403229328	0.869805585488411	-0.405093440155422
405029325	0.872776858696843	-0.406179032022461
406829322	0.871375791332762	-0.408428202066943
408629319	0.873148090022677	-0.409729765143027
410429316	0.874073324503868	-0.413507627505618
412229313	0.87497184654363	-0.418859129138237
414029310	0.873648759177484	-0.419061505974911
415829307	0.87461895435335	-0.421247345295103
417629304	0.87370400260453	-0.423205494595896
419429301	0.875009277995006	-0.424879129610506
421229298	0.875017205823896	-0.428183022534993
423029295	0.876829394991034	-0.43129794180845
424829292	0.87592315328187	-0.432988770601616
426629289	0.87315815752757	-0.431668781189455
428429286	0.875118533409994	-0.434082598096349
430229283	0.872068199537143	-0.433539438364773
432029280	0.873368070755636	-0.433146425734229
433829277	0.871931171129074	-0.435896187510284
435629274	0.869587532625704	-0.434863027051
437429271	0.86696581855371	-0.435788807705396
439229268	0.865814980097247	-0.436153893194188
441029265	0.862723833969414	-0.435491636678031
442829262	0.863893614397131	-0.435636975433153
444629259	0.858820483452063	-0.438508827392001
446429256	0.857147589622844	-0.436029717472224
448229253	0.855105594509518	-0.435831854139162
450029250	0.85243762579484	-0.436127122062741
451829247	0.849399930556083	-0.437725225962009
453629244	0.847099898690521	-0.43771380423012
455429241	0.845329740835058	-0.43700306406571
457229238	0.840615017251915	-0.439353738116097
459029235	0.841371034593992	-0.4395341732376
460829232	0.83600390779039	-0.438085021599383
462629229	0.834871957601832	-0.440314039022157
464429226	0.830621170113168	-0.442154412015115
466229223	0.828035382348352	-0.440724769775462
468029220	0.826350507498726	-0.443599597397737
469829217	0.824223761150619	-0.446462946443433
471629214	0.819785232826595	-0.447469388813707
473429211	0.816513686699253	-0.448510346796448
475229208	0.815186290695452	-0.450919809678335
477029205	0.816845521670707	-0.453458345070814
478829202	0.814705897065673	-0.452627239504133
480629199	0.811765998396636	-0.457919221113457
482429196	0.812454920674373	-0.45941753839193
484229193	0.811806188632923	-0.46339155800303
486029190	0.811655351105382	-0.462853446436446
487829187	0.812772465745603	-0.469005616085848
489629184	0.812725345344061	-0.471052978710279
491429181	0.812759523279754	-0.474593060816214
493229178	0.812060158169956	-0.478645421118426
495029175	0.815565846241681	-0.484534981539487
496829172	0.815617286847091	-0.487924208657491
498629169	0.816415998641049	-0.490565851562346
500429166	0.817968496652409	-0.492994827520393
502229163	0.818694951920937	-0.495580118306806
504029160	0.82295417753371	-0.498102552057989
505829157	0.823451866422008	-0.501753481616426
507629154	0.825655533468299	-0.502378752863549
509429151	0.825505386467462	-0.505901608255371
511229148	0.826842422062264	-0.50814051312208
513029145	0.826771097217271	-0.510696255881127
514829142	0.828025012679056	-0.513267962563376
516629139	0.829530519085651	-0.516741279045506
518429136	0.829941747499982	-0.517457384727887
520229133	0.831399316882021	-0.516904527095337
522029130	0.829450285878953	-0.519694939772517
523829127	0.832147026680258	-0.518033137620117
525629124	0.83184405812599	-0.518763185765333
527429121	0.82755277105881	-0.519909201472274
529229118	0.825946205316067	-0.518554206455786
531029115	0.823312845137837	-0.519584459396909
532829112	0.824386235368846	-0.521009771448823
534629109	0.820586281553078	-0.514917496680732
536429106	0.818709250294994	-0.515651093995221
538229103	0.815827419978859	-0.516885181733853
540029100	0.813292417515717	-0.518924427355727
541829097	0.808948478440437	-0.515561625358249
543629094	0.805630254039712	-0.512334817658738
545429091	0.800488942119676	-0.516754650010753
547229088	0.797395582342314	-0.515037349851584
549029085	0.792917505427187	-0.510773437708667
550829082	0.79038710171476	-0.512411100119869
552629079	0.781864986605528	-0.510219002222483
554429076	0.779386842581361	-0.508440725555014
556229073	0.779366584835707	-0.510153775433011
558029070	0.772071088939629	-0.509617130487977
559829067	0.76650882433749	-0.511938670814819
561629064	0.764943743529234	-0.510531602478018
563429061	0.763347488992441	-0.510902271202376
565229058	0.758532121873165	-0.510973545378565
567029055	0.758116621052811	-0.514750661043599
568829052	0.754859540416904	-0.515446967205224
570629049	0.750442250614245	-0.519585326565727
572429046	0.751316968925571	-0.52049756889043
574229043	0.749994611884599	-0.524342558720775
576029040	0.747840167290844	-0.526756873701367
577829037	0.748196628937075	-0.533793016853126
579629034	0.747556085633433	-0.535652482038795
581429031	0.750052051963068	-0.537243003929899
583229028	0.747972175382276	-0.541461760471648
585029025	0.747381842996748	-0.544006273132466
586829022	0.751289266101568	-0.551327664836917
588629019	0.752426865153346	-0.556080424283175
590429016	0.753222006585252	-0.557730368111041
592229013	0.753583384090597	-0.558685245621573
594029010	0.756140361035421	-0.564538040622024
595829007	0.758723514415433	-0.567368708487737
597629004	0.76210098637413	-0.569295006647965
599429001	0.762747902932305	-0.573235927063694
601228998	0.767892125995373	-0.576427877799422
603028995	0.765828521141112	-0.578770227159982
604828992	0.766548377665906	-0.582264143968082
606628989	0.76965564809219	-0.584878210006378
608428986	0.771900734022034	-0.586009124086227
610228983	0.77371427525598	-0.586940015093872
612028980	0.771694541775777	-0.590340554620879
613828977	0.776021835124836	-0.589474182869852
615628974	0.774296508268976	-0.59063415111277
617428971	0.774709097423835	-0.592615106291806
619228968	0.775351698185212	-0.58932012937065
621028965	0.775176679698254	-0.59245222184232
622828962	0.773801066918705	-0.591800830947923
624628959	0.772632650796108	-0.589356519273364
626428956	0.769887119956423	-0.590066960178201
628228953	0.764813621239319	-0.591644120542478
630028950	0.764457735286014	-0.585968967783466
631828947	0.762842675767526	-0.588804566138084
633628944	0.758836057454824	-0.585536127818052
635428941	0.754473840476704	-0.586149432465312
637228938	0.753475902146859	-0.58455351183086
639028935	0.749163163372747	-0.582831576169455
640828932	0.74361642159545	-0.584061944428343
642628929	0.740732514113217	-0.578783577704887
644428926	0.736548180878815	-0.581576265709584
646228923	0.731121266767759	-0.582276196287413
648028920	0.730554087568148	-0.579602233042289
649828917	0.726156398008883	-0.578797877513902
651628914	0.722364344900878	-0.580707042172122
653428911	0.716663670788427	-0.581125964271546
655228908	0.713446168788129	-0.578358897722413
657028905	0.710604200124258	-0.579790173758222
658828902	0.709131561625722	-0.581566207037722
660628899	0.703421997792462	-0.582951378188018
662428896	0.70033702547108	-0.58579095127752
664228893	0.69742888375564	-0.586585964818689
666028890	0.695065197026088	-0.589611084282481
667828887	0.695884067480697	-0.591614400570999
669628884	0.696417422563027	-0.593917050391073
671428881	0.692696241537622	-0.595635767086881
673228878	0.691103069040507	-0.598092514101621
675028875	0.69065042896574	-0.603773269854186
676828872	0.690582223664932	-0.605178012834928
678628869	0.693111860333227	-0.607779935163866
680428866	0.692607208685022	-0.613140324566691
682228863	0.693112355962442	-0.616578329340039
684028860	0.694700451937974	-0.619260192883167
685828857	0.695065610941214	-0.622793366500659
687628854	0.697346595212131	-0.622230917581277
689428851	0.698418779810055	-0.626353086121373
691228848	0.701224502995824	-0.629541376032636
693028845	0.701691561014566	-0.634602716638774
694828842	0.702892067186316	-0.636389273755912
696628839	0.70676966790679	-0.637270913495828
698428836	0.707098683136206	-0.639344777266443
700228833	0.708958149506968	-0.643604251238372
702028830	0.711549985109133	-0.644255839270953
703828827	0.711064553550748	-0.646416005598556
705628824	0.71216007552049	-0.6472067545472
707428821	0.712312054083846	-0.6462385593593
709228818	0.71258072468451	-0.64814336655954
711028815	0.712222285819383	-0.646842999566221
712828812	0.715385232159555	-0.648358983043131
714628809	0.712918363263561	-0.649406240842235
716428806	0.711724883264288	-0.648438715506902
718228803	0.712173337835891	-0.650235253911903
720028800	0.709447578841433	-0.646663795954011
721828797	0.707496091436848	-0.646509603501849
723628794	0.707987071828267	-0.645127923752261
725428791	0.703211054828165	-0.64269058378611
727228788	0.701278365550762	-0.644324629764615
729028785	0.698225660051659	-0.6429228837545
730828782	0.694273399431516	-0.64224119238945
732628779	0.692570675890891	-0.639596673687081
734428776	0.687951261961899	-0.641165947651995
736228773	0.682886292072717	-0.639554478748911
738028770	0.679581704472288	-0.638790431196771
739828767	0.675479838437201	-0.642993094931977
741628764	0.673990133197008	-0.639504610193434
743428761	0.672080698285577	-0.63936626539643
745228758	0.667215699744492	-0.640726093163791
747028755	0.664885461942457	-0.6410990353225
748828752	0.660248775498891	-0.639641828114246
750628749	0.657409207920308	-0.642019722574379
752428746	0.654853391715356	-0.643621435454402
754228743	0.650510426523571	-0.64364418215828
