!Keysight Technologies N9917A: A.12.46
!Date: Wednesday, 08 November 2023 22:15:02
!TimeZone: (UTC-03:00) Buenos Aires!Model: N9917A
!Serial: MY56072049
!GPS Latitude: 
!GPS Longitude: 
!GPS TimeStamp: 0001-01-01 00:00:00Z
!GPS Seconds Since Last Read: 0
!CHECKSUM:1445532803
!Correction: S11(ON U)
!S1P File: Measurement: S11:
# Hz S RI R 50
30000	1.00344806510963	0.00051087490217501
1829997	1.00617800255784	0.00160670393418234
3629994	1.00316446522509	0.00117773713055596
5429991	1.00134207867835	0.000637739448770692
7229988	0.997403370692852	0.0016457313700708
9029985	0.99368024104126	0.00129223348231579
10829982	0.990090606112322	0.000430526615494829
12629979	0.983930001877601	0.000556475365497418
14429976	0.980401358037112	0.00012671720243955
16229973	0.975236000564617	0.00200324662604282
18029970	0.96751564763328	0.00253241085535282
19829967	0.960732377312532	0.001960457524953
21629964	0.955887759360755	0.0023537929376683
23429961	0.94885408121048	0.00137494370860362
25229958	0.942233526821176	7.64419684981532E-06
27029955	0.935891553778367	0.00139099652677145
28829952	0.930897628564288	-0.0011553533198967
30629949	0.924009146802506	-0.000217274936023137
32429946	0.916742331277287	0.000154336334201879
34229943	0.910954509367933	-0.00265299724250299
36029940	0.906598245222591	-0.00166880789181637
37829937	0.902621225206166	-0.00337021670390418
39629934	0.898028622174561	-0.00616869523683181
41429931	0.895820787003478	-0.00726971546547148
43229928	0.891103378771441	-0.00795077037594244
45029925	0.889479508402975	-0.00945897276955615
46829922	0.889070691381827	-0.0101063832049335
48629919	0.886941513984318	-0.0120154143763736
50429916	0.885018482258403	-0.012536099131051
52229913	0.886295655667878	-0.0154187407797235
54029910	0.887656638684723	-0.0172024852970744
55829907	0.89138394112923	-0.0179603562754634
57629904	0.892702880733989	-0.0192135881864638
59429901	0.895553230039395	-0.0195571718491536
61229898	0.898271559961765	-0.021838787267952
63029895	0.90428594761557	-0.0207637949321304
64829892	0.910280912206615	-0.0227030255254799
66629889	0.913975614482439	-0.0220638160194375
68429886	0.920953276755224	-0.0244620540868721
70229883	0.926132209641603	-0.0241722779422865
72029880	0.933866949002178	-0.0262082856295751
73829877	0.937995028422004	-0.0264616156293166
75629874	0.942152768034094	-0.0267946369941384
77429871	0.949858850417015	-0.0271131910032813
79229868	0.955181484686544	-0.0261878236229844
81029865	0.962708063315917	-0.0269553354622864
82829862	0.965381978225623	-0.0249116931913055
84629859	0.970003517390554	-0.0245772321893715
86429856	0.976518356389327	-0.0243680213350948
88229853	0.980937605793862	-0.0239065300136477
90029850	0.984152329813723	-0.0235789235653726
91829847	0.986472179947225	-0.0224628023039535
93629844	0.990552663454681	-0.0218552565014172
95429841	0.992752230067238	-0.0213641263755052
97229838	0.991926651848792	-0.0210881828593039
99029835	0.992717556659195	-0.020999665737391
100829832	0.992973406228111	-0.0225692809348327
102629829	0.992512435281448	-0.0209667582835936
104429826	0.991224959024129	-0.0215227257593061
106229823	0.988287619320862	-0.0195450946893125
108029820	0.984953186787695	-0.0198310804416209
109829817	0.981719465939774	-0.0208134191759884
111629814	0.978974879145952	-0.0202878414100289
113429811	0.975011188174707	-0.0205859136802939
115229808	0.970318455286347	-0.0212355935160557
117029805	0.966280673879726	-0.0210575387999467
118829802	0.961164766423356	-0.0203738733575113
120629799	0.955067925932892	-0.021756891932002
122429796	0.948605627550053	-0.0234825297376199
124229793	0.940925034830003	-0.0220768944461436
126029790	0.936043395197556	-0.0240405957706428
127829787	0.932770109821941	-0.0253100983382368
129629784	0.926856234729241	-0.0256117948797306
131429781	0.920533838085857	-0.0259622414096252
133229778	0.917266918739536	-0.0288924802624588
135029775	0.911332995189174	-0.0287502330651861
136829772	0.906406178411098	-0.0292937538127814
138629769	0.901570317162182	-0.0301659394551047
140429766	0.900177754828314	-0.0307385573190977
142229763	0.896514174588802	-0.0317001882768209
144029760	0.893783617981509	-0.0338933715490472
145829757	0.892457898939739	-0.0340008706488463
147629754	0.892241393921298	-0.0330185463305399
149429751	0.891922452998972	-0.037468688762318
151229748	0.891390656549058	-0.0355066240141313
153029745	0.889388619586377	-0.0376794485119927
154829742	0.891186736492828	-0.0385255291210542
156629739	0.892822894153559	-0.0379947192376555
158429736	0.892831620876764	-0.0385035999190948
160229733	0.895360080664351	-0.0392253209710256
162029730	0.900811284278319	-0.0405229376065572
163829727	0.903605232846949	-0.0398536856360302
165629724	0.905599799492441	-0.0389795952654203
167429721	0.910013939663553	-0.0413273476933986
169229718	0.914101708983373	-0.0408647817597139
171029715	0.918409629913877	-0.0406967475685581
172829712	0.922912554772412	-0.0416276206043097
174629709	0.926229403952593	-0.0418722434103178
176429706	0.92980341352309	-0.0404383027393626
178229703	0.934754183122174	-0.0394368336606878
180029700	0.938150804395288	-0.0401557246042384
181829697	0.943280016040739	-0.0390508307720057
183629694	0.946395628204735	-0.0390320453771176
185429691	0.949976123726365	-0.0403804107740099
187229688	0.955064628129587	-0.0400518506584943
189029685	0.957847623781604	-0.0407373815993682
190829682	0.959809905192446	-0.0388427939319215
192629679	0.961902305185119	-0.0392178876253042
194429676	0.963933025480582	-0.0408333904163788
196229673	0.966729567370215	-0.0400205099344915
198029670	0.965251899521799	-0.0404386692761186
199829667	0.968714198084166	-0.039218178541613
201629664	0.967804628811774	-0.0403965204339907
203429661	0.967750364802933	-0.0411263383181528
205229658	0.965888968798322	-0.0418599121835512
207029655	0.963847666152066	-0.0418419370023972
208829652	0.964508770022109	-0.0419787907884882
210629649	0.963692878170744	-0.0422896395387098
212429646	0.958126986277398	-0.0459271985495222
214229643	0.956153867968169	-0.0448831273952489
216029640	0.956389780894111	-0.0448036219289599
217829637	0.950930744892329	-0.0455634434168353
219629634	0.948236014804037	-0.0452830932429867
221429631	0.945364493485605	-0.0466332501246593
223229628	0.939868059820021	-0.0466203615609622
225029625	0.938061154553909	-0.0483800414241509
226829622	0.933507462976961	-0.048688482091262
228629619	0.930237024608245	-0.0507104166635292
230429616	0.925856032133012	-0.0500168066575339
232229613	0.922413204692505	-0.0525343167949047
234029610	0.918157060332152	-0.0495097149769381
235829607	0.914890163103552	-0.0498344774941548
237629604	0.912435431681256	-0.0511008274095159
239429601	0.910266187504109	-0.0520831431518863
241229598	0.905282431168074	-0.0530907618785354
243029595	0.905577024064092	-0.0506661032174521
244829592	0.902653802254506	-0.0511743113273733
246629589	0.901092548805765	-0.0504498990103225
248429586	0.89871239396664	-0.0528546701164406
250229583	0.897647063602826	-0.0524865631139011
252029580	0.896202157305654	-0.050286910946745
253829577	0.895262022736597	-0.0512812510171755
255629574	0.895615275634594	-0.0521038248687459
257429571	0.895543072828757	-0.0486889676608755
259229568	0.896954254044634	-0.0505301622012309
261029565	0.895812630778235	-0.0490095627125567
262829562	0.895570250747854	-0.0512143537276505
264629559	0.897479491370549	-0.0505833446817003
266429556	0.897836063513754	-0.0490607695511812
268229553	0.898109534688956	-0.0505547552457261
270029550	0.900395823793891	-0.0503000611589558
271829547	0.902136149360804	-0.0491343035928126
273629544	0.902982637825099	-0.0492870432528883
275429541	0.905986658516931	-0.0487571895925223
277229538	0.907366664504746	-0.0510535457411877
279029535	0.910113341654746	-0.0489378787280193
280829532	0.912064511703209	-0.0495303274132039
282629529	0.915332784740198	-0.0502907278278218
284429526	0.917194482711927	-0.0520895097403087
286229523	0.919188862368252	-0.0508892373592096
288029520	0.923593165260022	-0.0531460056627748
289829517	0.922622674035524	-0.0502737353607483
291629514	0.924822490770297	-0.0532950199976589
293429511	0.927909833975018	-0.052377367643141
295229508	0.929317897957937	-0.0556413701536393
297029505	0.933292194726722	-0.0563867508474314
298829502	0.933258879603768	-0.0553587122193953
300629499	0.936050775465465	-0.0595055792810724
302429496	0.936987829324122	-0.0593861491371562
304229493	0.93882748002358	-0.0612083048008407
306029490	0.939648286114781	-0.0629845898066192
307829487	0.941327889748183	-0.0647777675989807
309629484	0.939880613705924	-0.0650027389320775
311429481	0.94041401916798	-0.0677426915589552
313229478	0.938781007915387	-0.0671141442364751
315029475	0.940244612869435	-0.0683212847255147
316829472	0.938490384434481	-0.0690194201142217
318629469	0.940171247840328	-0.0706653251186414
320429466	0.939323809742773	-0.0695340780887597
322229463	0.938247394153153	-0.0702488624611298
324029460	0.934533090581915	-0.0711411912127414
325829457	0.93473790804078	-0.0715373108732418
327629454	0.931611945306772	-0.0706207930405021
329429451	0.931020832279262	-0.0685500578543266
331229448	0.928060725864248	-0.0700498756491032
333029445	0.927091174359071	-0.0683187993721478
334829442	0.925190993672772	-0.0696240333691845
336629439	0.924232630569986	-0.0666825558129219
338429436	0.920818196176736	-0.0678928833608509
340229433	0.91785931464161	-0.065105658718473
342029430	0.913864430534781	-0.0654849876979102
343829427	0.912421196445957	-0.0660316076256396
345629424	0.910883972540304	-0.0645676138478813
347429421	0.910208776424448	-0.0616860971304745
349229418	0.902423196337248	-0.0602910892565511
351029415	0.901991869998493	-0.0601337353414017
352829412	0.900204388638364	-0.0591350514067948
354629409	0.895277194460133	-0.0568530777211135
356429406	0.893149986939303	-0.0553586062246319
358229403	0.88999833775708	-0.0565224030878083
360029400	0.888798408365927	-0.0533465538112244
361829397	0.887398775532248	-0.0539311112415698
363629394	0.884558960539382	-0.0534221208350156
365429391	0.882534165241522	-0.0518805322928678
367229388	0.881826336200791	-0.0529794811801932
369029385	0.881894029994128	-0.0511832071629584
370829382	0.879809031702604	-0.0522521706506233
372629379	0.879265388299824	-0.0513426598154175
374429376	0.880685618429074	-0.0544490536907755
376229373	0.879188516500456	-0.0540939730729313
378029370	0.881774828697308	-0.0564513058010232
379829367	0.881112041639191	-0.0555968874161265
381629364	0.878896979899048	-0.0578543222998201
383429361	0.882870971118254	-0.0574899973370755
385229358	0.88409589105757	-0.0606146006494205
387029355	0.883610042712923	-0.0635903322476496
388829352	0.887150429943877	-0.061585909986247
390629349	0.89169709045101	-0.0668535791267874
392429346	0.895249322222752	-0.0692426550654853
394229343	0.89391084713801	-0.0704180416911989
396029340	0.897135219331106	-0.0698082197652251
397829337	0.900696301590233	-0.0702378333547142
399629334	0.903171043425574	-0.0764905200216289
401429331	0.908460860500497	-0.0729571403305218
403229328	0.910820508079217	-0.0813817136133379
405029325	0.913692934520163	-0.0824475902461995
406829322	0.916314987024369	-0.0839407034270117
408629319	0.921151727288432	-0.0840159097884647
410429316	0.924561356609782	-0.0862205994095987
412229313	0.927102437222004	-0.0868534813912264
414029310	0.927282365443133	-0.0871181743294003
415829307	0.930708925998286	-0.0878513717203763
417629304	0.931066058822493	-0.0882126845359455
419429301	0.932964204760165	-0.0892191617450409
421229298	0.935229391422955	-0.0899526120051226
423029295	0.936822817856488	-0.0884657808779338
424829292	0.936517883264134	-0.0897898241356677
426629289	0.934191143136124	-0.0877048297274496
428429286	0.937025194673815	-0.0878021998642683
430229283	0.935121952572259	-0.0865271160789496
432029280	0.934056985312657	-0.0837486280688347
433829277	0.932737425154823	-0.0841320231382858
435629274	0.931021178444088	-0.0807415907290592
437429271	0.927562691308272	-0.0804165131253511
439229268	0.925556827202187	-0.0789841810283428
441029265	0.921410309445302	-0.0753169292827849
442829262	0.920123262925587	-0.0734812152230197
444629259	0.916474262817525	-0.0735527747859428
446429256	0.911718232342236	-0.0677996977616403
448229253	0.906527752687399	-0.066175099600433
450029250	0.902563239934489	-0.0662826323510149
451829247	0.89937871499114	-0.0638818309993344
453629244	0.893359762955947	-0.0614570140959674
455429241	0.889781705588921	-0.0583101510671988
457229238	0.884924357116385	-0.0586546828665971
459029235	0.88245955356502	-0.0573171528535031
460829232	0.875659588040779	-0.0572561535457385
462629229	0.873784158093906	-0.0559174703147012
464429226	0.870082885588944	-0.0560155327888675
466229223	0.866322523386155	-0.0547238193215259
468029220	0.865355024852793	-0.0565392314079413
469829217	0.861104487765206	-0.057206385190314
471629214	0.85796477436511	-0.0566473576252821
473429211	0.854645527018164	-0.0584822287448745
475229208	0.853394245170479	-0.0598181748526246
477029205	0.855541680580793	-0.0604991758335379
478829202	0.853983047394716	-0.0613382180197802
480629199	0.854044211211458	-0.065957664971658
482429196	0.855143733732552	-0.0666475458256744
484229193	0.855654803037129	-0.0690172922314994
486029190	0.857406454371596	-0.0677809745987308
487829187	0.860479529202741	-0.073524562654491
489629184	0.862244950216043	-0.0760376468049007
491429181	0.863081583520853	-0.0778559390037207
493229178	0.867721447385144	-0.0822484996979899
495029175	0.875436857047746	-0.0847427170613949
496829172	0.875346329077663	-0.0857642174343482
498629169	0.879686890170062	-0.090268991562019
500429166	0.886323820053696	-0.0919157048394859
502229163	0.890321549890107	-0.094194558103598
504029160	0.895486488946499	-0.0950560813969328
505829157	0.899612086204153	-0.0973928007079423
507629154	0.905224753299263	-0.0963956225762666
509429151	0.909287372905047	-0.0997817505295906
511229148	0.914653427421914	-0.101415270067146
513029145	0.917664712961918	-0.102709708708275
514829142	0.921519418869392	-0.103277417472127
516629139	0.925788631598048	-0.104172268568367
518429136	0.928979550533057	-0.102889339105808
520229133	0.931074020738519	-0.102142936268599
522029130	0.934613608082284	-0.103237055715586
523829127	0.936690614401723	-0.0999567668348884
525629124	0.93985887733558	-0.0983400369822758
527429121	0.93734845733789	-0.0998995696912913
529229118	0.936312590403103	-0.0958151846792132
531029115	0.934648641751226	-0.0963144473416219
532829112	0.937466274715974	-0.0945939390358517
534629109	0.932332930869883	-0.0887107127725341
536429106	0.930583452963462	-0.0884847480309069
538229103	0.928405958224542	-0.0858468951953712
540029100	0.926428612713957	-0.0868307413758126
541829097	0.920538256474969	-0.082559278670818
543629094	0.913983787830192	-0.0763323702696092
545429091	0.910790273529261	-0.0784242497146272
547229088	0.906113685781742	-0.0742705743408691
549029085	0.900324870098181	-0.0711337623190615
550829082	0.896913315406002	-0.0695471080662434
552629079	0.888115420914942	-0.0685860479537601
554429076	0.882360606616307	-0.06547713195648
556229073	0.881436379761623	-0.0646306291355871
558029070	0.872826577461872	-0.0640910641960201
559829067	0.865844643869381	-0.0631405592485
561629064	0.862041139475186	-0.0618225033377651
563429061	0.857099188376881	-0.0583823529834079
565229058	0.853034157740736	-0.0604693779048708
567029055	0.850428908942628	-0.0605346803819306
568829052	0.84562011266367	-0.060368422041654
570629049	0.84219863374538	-0.0633927660688712
572429046	0.840732422116095	-0.0636242803779442
574229043	0.840839506431097	-0.0643953457814634
576029040	0.836852230234271	-0.0683331995828002
577829037	0.837045107647842	-0.0703417808415704
579629034	0.836189314379454	-0.0717345470448916
581429031	0.837000019025084	-0.0720415081967019
583229028	0.83805805721026	-0.0761784419591064
585029025	0.838826840966022	-0.0788606208329494
586829022	0.843567532254436	-0.0808441943320973
588629019	0.845949705403047	-0.0869698047439668
590429016	0.848158555248015	-0.0873580917404501
592229013	0.849676610066689	-0.0903334783898362
594029010	0.855309741609491	-0.094386849906163
595829007	0.859429212705675	-0.0946595032744619
597629004	0.864310872605928	-0.094699391999764
599429001	0.869625934679661	-0.0990332364686264
601228998	0.876859070268086	-0.0993427881599855
603028995	0.880366916326396	-0.10420641698462
604828992	0.885593843542094	-0.107305629978227
606628989	0.892015477945829	-0.108339732554687
608428986	0.896822735635406	-0.107798637180699
610228983	0.903629789614969	-0.108666891363208
612028980	0.906843152554763	-0.112257235317343
613828977	0.915155031678222	-0.110057152090289
615628974	0.916023753427446	-0.111352577092378
617428971	0.922078887506984	-0.110981352430693
619228968	0.92255036279371	-0.10754677820137
621028965	0.929031757035598	-0.109685940310879
622828962	0.931327011395384	-0.109004213668791
624628959	0.930930570207817	-0.107660429545025
626428956	0.931359095719433	-0.107048170350573
628228953	0.9315050715681	-0.108819319876506
630028950	0.929289325383207	-0.10207971537715
631828947	0.930947929256919	-0.102217168777227
633628944	0.92836074567636	-0.0996649918882285
635428941	0.926392968034706	-0.0990252619438496
637228938	0.92280668466653	-0.0943326748689336
639028935	0.920747134477032	-0.0920123220027447
640828932	0.915570747787174	-0.093199777188711
642628929	0.908851839332322	-0.0885728559650406
644428926	0.905995351534079	-0.0847854298416552
646228923	0.901972166833956	-0.0854708240350504
648028920	0.896632139984577	-0.0794706573130269
649828917	0.890483805774563	-0.0759050664385045
651628914	0.88587598297305	-0.0781329257263521
653428911	0.879335068653524	-0.0766819739888873
655228908	0.872247647476879	-0.0730154476014048
657028905	0.868611498693846	-0.0736519155752132
658828902	0.865443602195398	-0.0724396306975077
660628899	0.859304732607526	-0.0714228788105722
662428896	0.854516523893142	-0.0703791868455995
664228893	0.84946000270657	-0.0736664116693762
666028890	0.844829354134865	-0.0742930718492595
667828887	0.843971568300548	-0.0710295691996665
669628884	0.841247417252313	-0.0716133878710995
671428881	0.834590215633794	-0.0725740198759744
673228878	0.832719984548168	-0.0739533648048231
675028875	0.83342333939398	-0.0787458121599451
676828872	0.832713609360092	-0.0797822360552734
678628869	0.833967841837915	-0.0787942576336696
680428866	0.833318686411022	-0.0828668004550602
682228863	0.835167256154984	-0.0849438152396558
684028860	0.835296124361375	-0.0844538508498565
685828857	0.837917866623849	-0.088759076378804
687628854	0.838053928763852	-0.0881065650640839
689428851	0.842867229042548	-0.0905468776445556
691228848	0.847274732853602	-0.0934663994312365
693028845	0.850497044237792	-0.0975015336449153
694828842	0.854411006121156	-0.0989208281025061
696628839	0.859368364093114	-0.097460549316749
698428836	0.862795179154985	-0.100852853054712
700228833	0.868957991821745	-0.103190457381221
702028830	0.875051468618188	-0.103558594140441
703828827	0.878589014170241	-0.106539452123489
705628824	0.883287595241742	-0.106765203487497
707428821	0.885567895706964	-0.10798871517405
709228818	0.89196155814095	-0.10785237932579
711028815	0.894569890210287	-0.109480287392106
712828812	0.902413769022149	-0.108612773569488
714628809	0.904758921007591	-0.111177188478288
716428806	0.90815671519151	-0.109493730188466
718228803	0.913115760064706	-0.111059577538773
720028800	0.912236424092179	-0.109377008548768
721828797	0.915308257787771	-0.109347636131901
723628794	0.918900478345459	-0.109170039850124
725428791	0.916739805254619	-0.106605195897028
727228788	0.919123956079025	-0.107691104024392
729028785	0.916523152314	-0.108775111362201
730828782	0.916041662551687	-0.107421608519294
732628779	0.914255156158638	-0.10302068926732
734428776	0.915462208172692	-0.103650576087109
736228773	0.908600782546183	-0.104353264728008
738028770	0.905465181055096	-0.102489282557122
739828767	0.904802283228922	-0.102932378866787
741628764	0.901793520743685	-0.100086176223664
