!Keysight Technologies N9917A: A.12.46
!Date: Wednesday, 08 November 2023 22:45:00
!TimeZone: (UTC-03:00) Buenos Aires!Model: N9917A
!Serial: MY56072049
!GPS Latitude: 
!GPS Longitude: 
!GPS TimeStamp: 0001-01-01 00:00:00Z
!GPS Seconds Since Last Read: 0
!CHECKSUM:1371413415
!Correction: S11(ON U)
!S1P File: Measurement: S11:
# Hz S RI R 50
30000	1.00504091678098	-6.43696443184498E-05
1829997	1.0065577586271	0.000561460756657079
3629994	1.00312272394096	0.000956890898970456
5429991	1.00230251708844	0.000366571829244555
7229988	0.9990487674795	0.00187776421932922
9029985	0.99727685768671	0.00343672978395308
10829982	0.996029823115668	0.00322298342264524
12629979	0.991879912461385	0.00445211248946478
14429976	0.991158197973403	0.00528006367885039
16229973	0.986807071537186	0.00663628504458856
18029970	0.980188212976272	0.00640296693222153
19829967	0.977339061933441	0.00607547072854404
21629964	0.97568942280267	0.0086158046659852
23429961	0.971193387078451	0.00909894658235348
25229958	0.965430406849367	0.00873927277626367
27029955	0.962858041961713	0.00850844940985221
28829952	0.959601325252703	0.00730726748078415
30629949	0.954106387004074	0.00718701481373488
32429946	0.951267392035485	0.0102149311095353
34229943	0.948874123088029	0.00850006146168453
36029940	0.946024800964244	0.0118404617090043
37829937	0.942281112856301	0.0108955810527508
39629934	0.939294736600847	0.00931921485600103
41429931	0.93978057722513	0.00915704438111792
43229928	0.936831543581981	0.00949631903604295
45029925	0.934358886415468	0.00954042361473462
46829922	0.935865131941118	0.00971642644242371
48629919	0.933287958623152	0.00999774418503477
50429916	0.932545695334966	0.0118164109302022
52229913	0.932568967348118	0.0109848598599049
54029910	0.934654266971498	0.0114463691842913
55829907	0.935338062329709	0.0129133478365414
57629904	0.935781724570359	0.0141908657702088
59429901	0.936724279666275	0.0125842127590721
61229898	0.93689552846238	0.0140267531713185
63029895	0.940216452176251	0.0178123178927957
64829892	0.941888785431189	0.0161247777718442
66629889	0.944167458026558	0.0184275903092293
68429886	0.946627352315973	0.0175030224831599
70229883	0.946873741082187	0.0197543680439395
72029880	0.949646234878425	0.0204589616261657
73829877	0.951026515606602	0.0227861062077998
75629874	0.951534623296749	0.024678807111894
77429871	0.955196857011882	0.0281980150469571
79229868	0.955739331876784	0.0302325319593864
81029865	0.958511010559199	0.0335857164068488
82829862	0.958556094448465	0.0357927360273789
84629859	0.959077311061933	0.0387153423421901
86429856	0.961694772228883	0.0414347057704068
88229853	0.961200645937682	0.0443634361729656
90029850	0.962249749671054	0.0474301774639078
91829847	0.961472453895262	0.0509945287989026
93629844	0.962145411850384	0.0540604389040286
95429841	0.961977250554383	0.0554514728864453
97229838	0.961081738432244	0.059188597519137
99029835	0.960452406393541	0.0605975324664159
100829832	0.960198397675124	0.0626360546450246
102629829	0.956642159163516	0.0652725433924933
104429826	0.955818646102938	0.066901670934471
106229823	0.953533104294094	0.0686954418126585
108029820	0.95104714070045	0.070105093219293
109829817	0.949434252893995	0.0716200294847675
111629814	0.946634503235412	0.0738696665638848
113429811	0.944579527917897	0.0764564325427826
115229808	0.941841036244193	0.0755466677966993
117029805	0.939042063312381	0.0770369246611485
118829802	0.935080057516621	0.0775088859417407
120629799	0.934581098195644	0.0778557560225878
122429796	0.9307523605707	0.0777134468216381
124229793	0.926917271629902	0.0796497539442677
126029790	0.923895803225028	0.0802330242947181
127829787	0.922582183580331	0.0787714874146641
129629784	0.921168531188654	0.0786072351387057
131429781	0.919398836486649	0.0801796083780912
133229778	0.919473880173976	0.0781217832026462
135029775	0.917274164586782	0.0783718360964409
136829772	0.914053234715944	0.0795348241899089
138629769	0.913012322394964	0.0787792481037865
140429766	0.914172257188706	0.0811174246096029
142229763	0.914251216572366	0.0793837218651706
144029760	0.911753321994554	0.0812801639462968
145829757	0.913493523231183	0.0814353091179766
147629754	0.915361481936488	0.0829389762727455
149429751	0.915941186977237	0.0817371646639728
151229748	0.916130022321373	0.0845766049515498
153029745	0.915625559546559	0.084823730870872
154829742	0.917479451021512	0.0851028331559973
156629739	0.919690073201871	0.0866733818520185
158429736	0.920854703733856	0.0881372449514277
160229733	0.921697091110643	0.0901001384960886
162029730	0.925526064797913	0.0918723950402399
163829727	0.926585225592321	0.0931699271799846
165629724	0.927270002112397	0.0955827326876222
167429721	0.929049706199788	0.0962854963039111
169229718	0.93193605122917	0.0995965053961472
171029715	0.932359294053924	0.102329016202353
172829712	0.934230579892071	0.105757554784136
174629709	0.937136644036294	0.106862744760164
176429706	0.93704888312472	0.110343786425697
178229703	0.937944379659979	0.112207543445974
180029700	0.938364956132455	0.113816058775406
181829697	0.939986740791853	0.117030583432834
183629694	0.939188163044979	0.117722455199582
185429691	0.938343795615585	0.119491741479241
187229688	0.93927603971233	0.121411955803775
189029685	0.938298826462162	0.124055805469614
190829682	0.936298160226326	0.127514072097642
192629679	0.93582465599022	0.12795253876281
194429676	0.933492754639811	0.129314119131978
196229673	0.932451932265898	0.132287520864651
198029670	0.929624969505459	0.134373619163287
199829667	0.928943224673982	0.136280565743038
201629664	0.927405643444324	0.137776407327622
203429661	0.925137620540248	0.139488201399048
205229658	0.923736043806841	0.139900891372762
207029655	0.919254889224216	0.140226575542817
208829652	0.919581324060034	0.141301870309017
210629649	0.915170586361929	0.141066894391396
212429646	0.914572016507722	0.142827494602788
214229643	0.913058088520371	0.142978060070692
216029640	0.912538647077442	0.145918901925862
217829637	0.910218829075101	0.146441967461943
219629634	0.909023078548874	0.145898103249966
221429631	0.906261337651377	0.145441338100598
223229628	0.906587698281115	0.144432477602522
225029625	0.905047786030017	0.145339743579503
226829622	0.903128307702782	0.1450531993986
228629619	0.902862235287179	0.14528657326908
230429616	0.902199162230716	0.144809344254938
232229613	0.903346807099694	0.142796167584183
234029610	0.899934446510966	0.145064374925042
235829607	0.90196701956751	0.147352399919024
237629604	0.901332690741847	0.146838834167939
239429601	0.903164035634289	0.145152413020922
241229598	0.902209339785858	0.146446284229499
243029595	0.903369606876696	0.14925658937867
244829592	0.90373594743319	0.149954918360195
246629589	0.905898312358045	0.150199119092355
248429586	0.906633622405809	0.15145580318772
250229583	0.906734460193303	0.154022047039484
252029580	0.908818975780523	0.155425446844889
253829577	0.909734964938499	0.15604809683231
255629574	0.910814396885435	0.15615574219748
257429571	0.911670497229163	0.160620125291106
259229568	0.91492237778406	0.161761568313649
261029565	0.914118996346711	0.164062104320295
262829562	0.915708719997551	0.163811021215153
264629559	0.916869348475212	0.166322318428653
266429556	0.918076330706207	0.169771003561242
268229553	0.917320801308834	0.170012422875166
270029550	0.918306429839699	0.171123022240258
271829547	0.917762632300757	0.174432632908298
273629544	0.917270451373766	0.177026055644548
275429541	0.918011289774649	0.178556009723336
277229538	0.915753620159449	0.180865050478911
279029535	0.915055906300354	0.183405178230698
280829532	0.914193316631119	0.183485938517375
282629529	0.91443909504055	0.185344853817463
284429526	0.915031299200557	0.185391183687039
286229523	0.912776683915799	0.188989033573975
288029520	0.912301113548024	0.188339204672727
289829517	0.907943989721614	0.190814387920371
291629514	0.907952972420905	0.192022443077431
293429511	0.907519523483358	0.193445334319004
295229508	0.903996263632102	0.193644384226165
297029505	0.905168639709156	0.193417815700362
298829502	0.901861610207027	0.195634815507809
300629499	0.903053195829891	0.195195349924286
302429496	0.900149119551886	0.194796482235597
304229493	0.899898881498047	0.194535447179478
306029490	0.900727419499003	0.193251200139379
307829487	0.899226594357383	0.19174052358658
309629484	0.896302732350721	0.193415605196804
311429481	0.89778190381205	0.19137571384608
313229478	0.894934058801863	0.189897218583988
315029475	0.895529395242753	0.191775564252215
316829472	0.895136378935259	0.188801733212514
318629469	0.895472299199644	0.189461679190119
320429466	0.895923922731472	0.190753252701986
322229463	0.896253587626588	0.18727235862175
324029460	0.89377875094414	0.189189650941601
325829457	0.894400710484685	0.189014977631436
327629454	0.894770968757155	0.188562924382875
329429451	0.894747815935977	0.188803631390002
331229448	0.894771955752347	0.188958451962569
333029445	0.894472324164401	0.190984680986238
334829442	0.894294707271544	0.189386742313947
336629439	0.896083069325504	0.193101381463711
338429436	0.894944602386818	0.192472263038253
340229433	0.895374692750114	0.194521646401455
342029430	0.896434832433077	0.195712416412404
343829427	0.897154140010255	0.196537840697714
345629424	0.899559044979249	0.196799903251562
347429421	0.897906648073182	0.201541684380366
349229418	0.89676178337278	0.201773618716133
351029415	0.896850645361469	0.202914439583029
352829412	0.898097414999225	0.205083868551469
354629409	0.895393661035218	0.207550091070095
356429406	0.893830648872072	0.2091786789273
358229403	0.894036386528231	0.210948110132098
360029400	0.894241188141744	0.214922590909413
361829397	0.89423693382774	0.217332244657997
363629394	0.89177042657056	0.22000705311229
365429391	0.892013876259237	0.222240100959795
367229388	0.891236277870878	0.223926614256078
369029385	0.889952181475916	0.22749564278871
370829382	0.889032350270517	0.228998506024079
372629379	0.886433670063804	0.230753713941431
374429376	0.890486704967774	0.230378910582496
376229373	0.887445137831955	0.230777644080796
378029370	0.88660142087533	0.230573966429191
379829367	0.885380229658208	0.23311685418556
381629364	0.882097846198057	0.232690297366602
383429361	0.883287526308999	0.234448738571062
385229358	0.880778505577252	0.233230022654083
387029355	0.879577578402755	0.232613119578986
388829352	0.879884526450833	0.233599294640243
390629349	0.880142812474291	0.23236238593334
392429346	0.879891087948433	0.232703407245391
394229343	0.877860168003742	0.231730155175713
396029340	0.875173909490909	0.232905802474132
397829337	0.87507951162308	0.233576174059421
399629334	0.877319061776718	0.229060924619217
401429331	0.878574451053404	0.232570462832096
403229328	0.878846195007098	0.228543754989345
405029325	0.880057943607683	0.228459726386052
406829322	0.878086999665642	0.227776645707614
408629319	0.881369751346091	0.228170585668532
410429316	0.883209862702477	0.227513054669353
412229313	0.884664051317944	0.226020819986917
414029310	0.884235768474638	0.225238021616816
415829307	0.887199983901584	0.225251818779114
417629304	0.888390867248805	0.225934463802515
419429301	0.889340013995309	0.22569866976763
421229298	0.891681558050114	0.225491585692491
423029295	0.894301300292898	0.226921314099084
424829292	0.896831403480102	0.226178744391779
426629289	0.895143894840265	0.225318036342281
428429286	0.899166699192743	0.227662400988884
430229283	0.898994823601837	0.22786296096177
432029280	0.901370171627508	0.229237898705265
433829277	0.902249891699179	0.229253263988986
435629274	0.904055782776821	0.231431879796674
437429271	0.904027277126951	0.229158305684973
439229268	0.904210230862701	0.231581711433635
441029265	0.904161981381252	0.232549901904531
442829262	0.903989643733928	0.235166220290498
444629259	0.905166505069702	0.232690119658406
446429256	0.903348030024365	0.234689077007668
448229253	0.902421616563887	0.23574574801487
450029250	0.90104308450341	0.235703729178182
451829247	0.90095921581446	0.236688424231726
453629244	0.896837646396326	0.237376952095948
455429241	0.894455706621796	0.240103984530657
457229238	0.893366759362514	0.238325272189113
459029235	0.890425285031655	0.240398376603158
460829232	0.887644816371302	0.240762183057363
462629229	0.886667139510617	0.241635826198129
464429226	0.882926159210131	0.240534199543679
466229223	0.879506888371313	0.242450404073435
468029220	0.879262571716085	0.243264637542911
469829217	0.876274219343127	0.239999806703163
471629214	0.872685590193916	0.241135369098205
473429211	0.869685839401743	0.240189872752101
475229208	0.867631662008845	0.238816503558744
477029205	0.865701904055322	0.24047146296469
478829202	0.861687184645852	0.240666841758051
480629199	0.862891603022334	0.238775754612341
482429196	0.859369207871223	0.239185739571287
484229193	0.857999873290836	0.239340074140942
486029190	0.855655926544054	0.241129808764447
487829187	0.860098237229911	0.237704129378072
489629184	0.856953819862637	0.238754193720642
491429181	0.856745845761726	0.23750273680474
493229178	0.857434974391655	0.23499426463598
495029175	0.860828751703995	0.236423114600698
496829172	0.861380019398878	0.235809789642605
498629169	0.862130539768026	0.233274914436308
500429166	0.864529865157563	0.234426400431626
502229163	0.866390011827964	0.233457350057059
504029160	0.868112833216238	0.23381728082016
505829157	0.871879603057906	0.234394205495651
507629154	0.874244091459016	0.235952675484356
509429151	0.874820034072208	0.23375636070985
511229148	0.878630205320978	0.235175231546709
513029145	0.881418490367562	0.23504211155504
514829142	0.883710747668187	0.235648391837653
516629139	0.88872239806569	0.23588785427188
518429136	0.891219660033271	0.237022914634085
520229133	0.891988251090135	0.238158319532208
522029130	0.89644843829521	0.236888253063041
523829127	0.899584099915726	0.240197077319871
525629124	0.902574947296824	0.241794978831583
527429121	0.903010792733316	0.240242773740246
529229118	0.904144993539461	0.242344192735589
531029115	0.902992558388258	0.242484707056119
532829112	0.908981636560877	0.242625567236559
534629109	0.904821642571266	0.24610162122148
536429106	0.907449613165275	0.246960565333115
538229103	0.908219456004766	0.247100706341282
540029100	0.910399136014559	0.24517474053047
541829097	0.90783512279492	0.247297899481177
543629094	0.903203673624344	0.248815039796342
545429091	0.905507130309282	0.246955166084698
547229088	0.903465175519317	0.249084079244737
549029085	0.900792286010724	0.248409895886835
550829082	0.899979805472916	0.248597845039522
552629079	0.895396596564081	0.246763508167207
554429076	0.892334894439379	0.248033198266395
556229073	0.892073982653637	0.246974703943318
558029070	0.887338043806049	0.244332871565363
559829067	0.885044471507731	0.24221265642143
561629064	0.881937195274258	0.240353634730796
563429061	0.878359379876121	0.243130070883435
565229058	0.877319472416545	0.240718438988771
567029055	0.875645659853467	0.23816472282592
568829052	0.87093929639836	0.23699136656018
570629049	0.868944947190741	0.233570130801613
572429046	0.867695032720255	0.233746730852426
574229043	0.86547854472162	0.233180929319459
576029040	0.863816459962233	0.229149242585659
577829037	0.863123077139357	0.224210032829662
579629034	0.862659421880123	0.224363538057644
581429031	0.860075674055902	0.22420790390492
583229028	0.863338970180018	0.220061486546716
585029025	0.860808663689188	0.217132815600906
586829022	0.864366808903175	0.217625247339106
588629019	0.865281987652065	0.21305802195281
590429016	0.8644196154708	0.214336191663361
592229013	0.864128537340743	0.212649480204646
594029010	0.865230961281976	0.212347840577252
595829007	0.868216543937458	0.210599649547713
597629004	0.867677497405482	0.212846231820503
599429001	0.870369821611638	0.209887782114006
601228998	0.875877003138994	0.212709961644584
603028995	0.876600074111158	0.210369373855017
604828992	0.880759905729072	0.209196377778719
606628989	0.883441032269968	0.210125367018381
608428986	0.884989547835956	0.212581946115983
610228983	0.889721052930094	0.213543560220962
612028980	0.890820243787965	0.211450932920806
613828977	0.894807148175235	0.216691708535676
615628974	0.89631695026793	0.214670135008133
617428971	0.899709904774351	0.217593127432795
619228968	0.899110465748034	0.220671293131005
621028965	0.904598056092021	0.221193815374111
622828962	0.907104280306799	0.22328309791938
624628959	0.907521488571484	0.224604967262652
626428956	0.908075527304798	0.224876962796777
628228953	0.910156416288249	0.223783213163484
630028950	0.908470739098253	0.228634897715465
631828947	0.912023275845162	0.228327942929235
633628944	0.910560647108599	0.230438785280617
635428941	0.911662291941362	0.229491761697707
637228938	0.909180894242433	0.231950815543073
639028935	0.907710359826303	0.233136933252427
640828932	0.907369735680492	0.228965028477842
642628929	0.902420719079143	0.232228221885377
644428926	0.902043639664227	0.231410612780248
646228923	0.901690026383025	0.229466706752507
648028920	0.898879852407955	0.23176916472512
649828917	0.895031747281812	0.231135992714104
651628914	0.894949381243371	0.228274200206739
653428911	0.891136083073564	0.225013177065577
655228908	0.887515520157346	0.226526447815505
657028905	0.883899179668979	0.22340255475391
658828902	0.885145681017274	0.222347939099932
660628899	0.881639044876058	0.21859730241777
662428896	0.881207893195359	0.216492392557962
664228893	0.878352575198516	0.214181146187131
666028890	0.875209909523835	0.211018939235345
667828887	0.875945176479339	0.209027844205018
669628884	0.876020394372232	0.207635848852779
671428881	0.872193970003489	0.204445090359199
673228878	0.87104411653341	0.202031445323584
675028875	0.874318067127571	0.197646909747546
676828872	0.874129245472731	0.197531395347571
678628869	0.874015340300952	0.194474966467067
680428866	0.875117502407187	0.190912723422235
682228863	0.87683340771517	0.188837660820762
684028860	0.877528911309516	0.189483067659427
685828857	0.878646669945026	0.18498580663237
687628854	0.880740265679978	0.18662682488071
689428851	0.881571341738911	0.185402618631272
691228848	0.886123043312405	0.184104557671404
693028845	0.88827003060312	0.181104744983139
694828842	0.889870199934431	0.179905490707427
696628839	0.895554643511656	0.182893363289045
698428836	0.895671662660807	0.180750947885164
700228833	0.900446047229674	0.181858035869095
702028830	0.90563421646219	0.181607471559253
703828827	0.906489890909491	0.18061767301282
705628824	0.909786195956664	0.181848874078377
707428821	0.909254410616157	0.181941579850483
709228818	0.913969072488964	0.184061948466586
711028815	0.914580925954739	0.182053567927159
712828812	0.919604081275394	0.186030329516985
714628809	0.922278652445048	0.183836518930482
716428806	0.923412469916527	0.186129432239111
718228803	0.927203709642491	0.186569407040065
720028800	0.924460793961978	0.187600951488514
721828797	0.926084433287572	0.187248824734273
723628794	0.927981381621585	0.189041260222556
725428791	0.926014048522729	0.190666594891953
727228788	0.928735049642152	0.190927519834139
729028785	0.925958558299413	0.188390217021245
730828782	0.925860748318016	0.188202029614586
732628779	0.922071532044901	0.190248779892318
734428776	0.925117054543079	0.188221823542722
736228773	0.92091042245351	0.185317906018363
738028770	0.91842019361318	0.185863088214354
739828767	0.920192808328814	0.182675706488473
741628764	0.916796474906835	0.184047980200398
743428761	0.914314194300096	0.185220307830584
745228758	0.912416553709278	0.181376482466783
747028755	0.908719293621443	0.178986593529733
748828752	0.906002510725209	0.178079761614553
750628749	0.905153822257435	0.17752395827
752428746	0.905233373122509	0.173216284704793
754228743	0.901420198606845	0.173397615540282
756028740	0.900254813296262	0.168972168769302
757828737	0.900393365019009	0.16989402691835
759628734	0.898227868622863	0.167351026871865
761428731	0.893560762749938	0.164118778759882
763228728	0.894511160972143	0.159732251544415
765028725	0.894729572347417	0.159299279495162
766828722	0.894468720516775	0.156296641443543
768628719	0.894690677952457	0.152679445032769
